! Touchstone Ver. 1.0 
! Number of ports is 3
# Hz	S	RI	R	50.000000
! SCATTERING PARAMETERS  :
0.00000000e+00     -0.2005209458103192  2.455673344486073e-17   5.337748255080276e-14                     0   -1.377587225780768e-12   1.6870577865987e-28  
 		   -0.04713019919034274  5.771784758163041e-18    -0.2005252782144629  2.455726401134744e-17   -3.792990283172695e-15  4.645073409484453e-31  
 		     0.1629527581411967                     0   -3.521816276947492e-14  4.312981030748795e-30    -0.2005256064155284  2.455730420438588e-17  
4.00000000e+04    -0.02526862894551951   0.09626528022520779   -2.001376581749252e-14  -4.092123324953251e-15   1.024961380737764e-19  3.259663673482823e-20  
 		   -0.08100955551419103  -0.01655731135157766   -0.02527603819597057   0.09626357504999448   1.738845725237013e-15  -2.309613960360688e-14  
 		     0.2813918846486249   0.05044691740351065   -5.030825136122958e-14  -1.42187456828169e-13   -0.02527658069258288   0.09626335338692874  
8.00000000e+04    -0.01409058401076713   0.05079961019495698   -8.255028353368061e-14  -8.668360397709169e-15   4.043428408664927e-19  6.390868394211758e-20  
 		   -0.08353379645005221  -0.008762434440572522    -0.0140982231750274   0.05079842695625759   1.768122392657926e-15  -4.553784777164504e-14  
 		     0.2899346845451587   0.01627583080585857   -2.78837522577444e-13  -2.840843457731774e-13   -0.01409878182327051   0.05079814676975562  
1.20000000e+05    -0.01235254744271541   0.03716422824701136     -1.86664240119e-13  -1.416049681801807e-14   9.691406385248539e-19  1.419621539233163e-19  
 		   -0.08394986885256078  -0.006355729417274224   -0.01236022147032301   0.03716307454934743   3.141845337241663e-15  -6.903250068970064e-14  
 		     0.2910599669032911  0.0008459086514940529   -6.601040413562474e-13  -4.049573783206528e-13   -0.01236078074657698   0.03716269993472231  
1.60000000e+05    -0.01164616272671659   0.02933391770648318   -3.325354333069083e-13  -1.96660314628244e-14   1.755969994673994e-18  1.86183868606502e-19  
 		   -0.08412342858247651  -0.004958591996344448   -0.01165385112262196   0.02933270108202764   3.636822256815022e-15  -9.157992962377554e-14  
 		     0.2911047743998897  -0.01106895520712313   -1.193892752305221e-12  -4.938308952951524e-13   -0.01165441023585567    0.0293322251979844  
2.00000000e+05     -0.0109194791549535   0.02152378632954435   -5.205863933450588e-13  -2.21961322593224e-14   2.795508753803363e-18  1.736487181296852e-19  
 		   -0.08428470500757081  -0.003573528528235659   -0.01092718701313755   0.02152250505743123   3.137217771909228e-15  -1.139489441101445e-13  
 		     0.2907001931814332  -0.02293602344957643   -1.882648629856473e-12  -5.280184647730935e-13   -0.01092774935703033   0.02152192743568303  
2.40000000e+05    -0.01066518520094051   0.01891436251237921   -7.501243939930535e-13  -2.760114102366952e-14   3.961353274016136e-18  1.727855088843422e-19  
 		   -0.08433898236281426  -0.003079251079982355   -0.01067289690375006   0.01891293547520043   3.041615833670146e-15  -1.369206440413964e-13  
 		     0.2899657359721738  -0.03168708090322013   -2.712886132691161e-12  -5.11627203712948e-13   -0.01067345823141208   0.01891225034113717  
2.80000000e+05    -0.01040911517177479   0.01630577665256071   -1.021641719295685e-12  -3.164044485516868e-14   5.303858350639928e-18  1.224261024598776e-19  
 		   -0.08439203454394895  -0.002585661312185733   -0.01041683286700745   0.01630420361286688   2.391922771255398e-15  -1.599656262774025e-13  
 		      0.288968380778241  -0.04041241794430025   -3.688357935344702e-12  -4.22172369282441e-13   -0.01041739435339195    0.0163034108286607  
3.20000000e+05    -0.01019148002983216   0.01436045072302563   -1.335065585643042e-12  -3.530830747930691e-14   6.858350092654156e-18  1.796149758512905e-19  
 		   -0.08443496853854518  -0.002201106008708484    -0.0101992030788125    0.0143587216594095   3.016224446655801e-15  -1.830271349986051e-13  
 		     0.2877509876561092  -0.04873112690872691   -4.805380587948804e-12  -2.534276970941712e-13    -0.0101997646969415   0.01435782042316572  
3.60000000e+05    -0.01001360064407575   0.01307771100235742   -1.690358293821694e-12  -3.924280687553165e-14   8.652211460891143e-18  4.680757996502782e-19  
 		   -0.08446830740595561  -0.001925082318344249   -0.01002132772325914   0.01307581600423753   5.549946522428656e-15  -2.060691942068084e-13  
 		     0.2863431574333158  -0.05664126766619669   -6.05992987668241e-12  2.548917175985622e-15   -0.01002188902732981   0.01307480555194059  
4.00000000e+05    -0.009835760948126325   0.01179511747022108   -2.08767173992622e-12  -4.172842627393975e-14   1.064831184636667e-17  8.733516080204878e-19  
 		    -0.0845011112828454  -0.001649134288002591   -0.009843493280557558   0.01179305646644487   8.320293283841909e-15  -2.291277259606748e-13  
 		     0.2847134598334345  -0.06451148726906289   -7.446390107356055e-12  3.634944502858879e-13   -0.009844054881584021   0.01179193671388594  
4.40000000e+05    -0.009696102133182725   0.01103114455895859   -2.526774582775166e-12  -4.541903767125768e-14   1.299415523611307e-17  7.978875807423357e-19  
 		   -0.08452419275273369  -0.001475359104690829   -0.009703837558153848   0.01102890832619463   6.920703354817338e-15  -2.525407076976385e-13  
 		     0.2829252950576582  -0.07198726589075011   -8.952547442337704e-12  8.288853871272931e-13   -0.009704398534498556   0.01102767863115444  
4.80000000e+05    -0.009556463194486111   0.01026732039178196   -3.0078896955732e-12  -4.801652405937448e-14   1.560489955929894e-17  6.493224619361374e-19  
 		   -0.08454713593206656  -0.00130159535840912   -0.009564202502790662   0.01026490891659455   5.017507778234589e-15  -2.760990721912533e-13  
 		     0.2809357529646083  -0.07941511621458359   -1.057779161636683e-11  1.418248575266951e-12   -0.009564763201045823   0.01026356921738395  
5.20000000e+05    -0.009393040941996221  0.009637819966908703   -3.531276429238701e-12  -5.01989727265246e-14   1.827623596074027e-17  5.280552801353662e-19  
 		   -0.08457543442844859  -0.001150238169246846   -0.009400784769171498  0.009635231025192533   4.241114253530071e-15  -2.988583804828955e-13  
 		     0.2787880763738288  -0.08672221696645302   -1.232050704123979e-11  2.13850984171241e-12   -0.009401345190542145  0.009633781013642451  
5.60000000e+05    -0.009205855217632506  0.009142519997609747   -4.097076401284972e-12  -5.215829178103709e-14   2.090882982033653e-17  4.63330225775751e-19  
 		   -0.08460911034944546  -0.001021242327355179   -0.009213604046289015   0.00913975133953809   5.187484083529468e-15  -3.205397408925414e-13  
 		     0.2764885137958258  -0.09390675194236721   -1.417490530455143e-11  2.998483711043781e-12   -0.009214164105423084  0.009138190687539311  
6.00000000e+05    -0.009018719362305803  0.008647208040454931   -4.7051443017784e-12  -5.291571117130515e-14   2.367634646234891e-17  3.519540223530566e-19  
 		   -0.08464267663923007  -0.0008921987974899303   -0.009026473771055366  0.008644259631084594   6.126420471676206e-15  -3.420112767924208e-13  
 		     0.2739980380430995   -0.1010325374622732   -1.612871041092741e-11  4.011410071489919e-12   -0.009027033698296938   0.00864258825022572  
6.40000000e+05    -0.008862371317429396    0.0082482977625815   -5.35513386860568e-12  -5.376765502178854e-14   2.734560904274846e-17  2.502454627578339e-19  
 		   -0.08466966580113035  -0.0007863517624484333   -0.008870130440670532  0.008245167661792155   5.698615566749496e-15  -3.645421421949765e-13  
 		     0.2713277568338286   -0.1080121018997398   -1.816796255694565e-11  5.178057043552511e-12    -0.0088706899370099  0.008243385427404125  
6.80000000e+05    -0.008706107540067176  0.007849383417995298   -6.047386517530192e-12  -5.342855000526313e-14   3.133628430751218e-17  1.143388797009556e-19  
 		   -0.08469656922983172  -0.0006804816879122987   -0.008713871841468768  0.007846071629358299   5.142979519210726e-15  -3.870649878912882e-13  
 		     0.2684736321612476   -0.1149238474644433   -2.028904233193602e-11  6.514856609317832e-12   -0.008714431075225626   0.00784417846860129  
7.20000000e+05    -0.008551409075516216  0.007499963530352275   -6.781867217021126e-12  -5.273914412263013e-14   3.543883243222151e-17   7.7965373282139e-20  
 		   -0.08472261447967867  -0.0005870071649070073   -0.008559178437278049  0.007496468956263064   5.268076586535607e-15  -4.100044913307573e-13  
 		     0.2654529723698769   -0.1217232998565752   -2.248491478669221e-11  8.03033546823826e-12   -0.008559737276046309  0.007494464735740996  
7.60000000e+05    -0.008398230388578677  0.007200045977835269   -7.558591162151807e-12  -5.188882745339648e-14   3.958826516440113e-17  1.807689422576044e-19  
 		   -0.08474782646078392  -0.000505941645074751   -0.008406004604107564  0.007196367529912841   6.185175325777763e-15  -4.334224281766386e-13  
 		     0.2622704640700614   -0.1284071660209187   -2.474672574016879e-11  9.732272117165117e-12   -0.008406562866500768  0.007194252120477909  
8.00000000e+05    -0.00824507575144451   0.00690013526072713   -8.377660793751285e-12  -4.987849928226559e-14   4.398475467275464e-17  3.009677366601224e-19  
 		    -0.0847729857926838  -0.0004248712108105346   -0.008252855155736925  0.006896272964490941   7.283819256238268e-15  -4.568911996971132e-13  
 		     0.2589131389190344   -0.1350114279542327   -2.706207638896312e-11  1.162862502514514e-11   -0.008253412944435157  0.006894046298835631  
8.40000000e+05    -0.008139220993512386  0.006641743725563773   -9.238382214457744e-12  -4.597337370652841e-14   4.878411849650784e-17  -1.174632983285378e-19  
 		    -0.0847914646311561  -0.0003380537080117995   -0.008147005577532229   0.00663769845417815   5.783984663263506e-15  -4.819900234413903e-13  
 		     0.2553532324863141   -0.1415379374127163   -2.941353339217447e-11  1.373178638924641e-11   -0.008147563109083487   0.00663536069301203  
8.80000000e+05    -0.008033430520323681  0.006383370046723558   -1.014137801299372e-11  -4.055657673568658e-14   5.388101902391074e-17  -6.318743501706256e-19  
 		   -0.08480988090166411  -0.0002512135646367109   -0.008041220631244907  0.006379141867232505   4.010581222746781e-15  -5.073460538316254e-13  
 		     0.2516218738036343   -0.1479749636243459   -3.179560420175162e-11  1.604428295543033e-11   -0.008041778023508807  0.006376692960847589  
9.20000000e+05    -0.007925616533822177   0.00613096093169043   -1.108681257602852e-11  -3.258436766287858e-14   5.901853633379934e-17  -5.484354075417907e-19  
 		   -0.08482921738547761  -0.0001573397817230035   -0.007933412961904753  0.006126550509336998   4.672735777643594e-15  -5.310216770471801e-13  
 		     0.2477111355544029   -0.1543405851933035   -3.419816489843048e-11  1.857161543552219e-11   -0.007933970550423221  0.006123990417486176  
9.60000000e+05    -0.007815818570218624  0.005884465016030842   -1.207474286306905e-11  -2.168801851693921e-14   6.412130385101271e-17  3.148453378365311e-19  
 		   -0.08484943578165446  -5.643151244558916e-05   -0.007823622142474564  0.005879873015514797   8.084220279019217e-15  -5.527183160173604e-13  
 		     0.2436213576539617    -0.160629838769942   -3.660878022585747e-11  2.131985834420782e-11   -0.007824180288115712    0.0058772016941977  
1.00000000e+06    -0.007706137805026603   0.00563791862790584   -1.310506701956343e-11  -8.565254720699126e-15   6.942963500764525e-17  1.324717530433105e-18  
 		   -0.08486954046510796  4.450034128083605e-05   -0.007713948903229183  0.005633145122301893   1.168003678894053e-14  -5.742942187620427e-13  
 		     0.2393640579123435   -0.1668160526745873   -3.901302441720608e-11  2.429549248883316e-11   -0.007714507759756462  0.005630362516742775  
1.04000000e+06    -0.007614919436926048  0.005431808535483046   -1.417713615444325e-11  1.994225360697788e-15   7.463881585938455e-17  1.092065388989692e-18  
 		   -0.08488569893993185  0.0001159685986253807   -0.007622736360378578  0.005426851117463601   1.071628081022053e-14  -5.977079331324244e-13  
 		     0.2349907694488065   -0.1728056152805206   -4.139983806111778e-11   2.7494442613577e-11   -0.007623295048887258  0.005423957128921183  
1.08000000e+06    -0.007523742388704012  0.005225679758523596   -1.529155720609287e-11  1.429397647975868e-14   8.001233261655017e-17  8.003938776405578e-19  
 		   -0.08490180853613735  0.0001874497107946004   -0.007531565377354665  0.005220538520162111   9.558873754021147e-15  -6.21158579355062e-13  
 		     0.2304590115199007   -0.1786866375154989   -4.375561761116707e-11  3.09285794350648e-11   -0.007532123975538484  0.005217533104486765  
1.12000000e+06    -0.007432606643247741  0.005019532356215489   -1.644835252060186e-11  2.843443315019803e-14   8.554972196009555e-17  4.44650778799197e-19  
 		   -0.08491786924468528  0.000258943648029252   -0.00744043592927779  0.005014207391812132   8.239365517158662e-15  -6.446436707871674e-13  
 		     0.2257710279127866   -0.1844552866932607   -4.606688739712961e-11  3.460168745610575e-11   -0.007440994513173372  0.005011090504753116  
1.16000000e+06    -0.00734151218503254  0.004813366389303491   -1.764754433020777e-11  4.451606368287577e-14   9.125088734510076e-17  1.965878317308916e-20  
 		   -0.08493388106019266  0.0003304503804456207   -0.007349347992709587  0.004807857794987476   6.831573427183041e-15  -6.681677672340582e-13  
 		     0.2209291066397252   -0.1901077706444254   -4.831970522991301e-11  3.851695231849455e-11   -0.007349906639537052  0.004804629392159557  
1.20000000e+06    -0.007250459000288755  0.004607181920059979   -1.888915475231966e-11  6.263936973209984e-14   9.711611041402415e-17  -4.798737127821508e-19  
 		   -0.08494984397519617  0.0004019698779622566   -0.007258301545795765  0.004601489793393033   5.21567754297865e-15  -6.917368955409175e-13  
 		     0.2159355764799448   -0.1956403335282526   -5.049967438047898e-11  4.267697306488619e-11   -0.007258860331835205  0.004598149830290557  
1.24000000e+06    -0.007178089037661373  0.004455602696433992   -2.017266832793344e-11  8.22484014620695e-14   1.041523110401043e-16  3.499682708448552e-19  
 		   -0.08496333369339709  0.0004706306051085176   -0.007185938104788068  0.004449727033146569   8.94036150858122e-15  -7.145071924173911e-13  
 		      0.210793508578754    -0.201036390387907   -5.260124143140632e-11  4.707316419035459e-11   -0.007186496982285574  0.004446275526911602  
1.28000000e+06    -0.007105755700907325  0.004304008904733958   -2.149857257395896e-11  1.040130716280037e-13   1.114789480271106e-16  1.286228231715885e-18  
 		   -0.08497676934360682  0.0005392996300359696   -0.007113611476024849  0.004297949814316145     1.290172138451e-14  -7.372389396381826e-13  
 		     0.2055052367204037   -0.2063051403218766   -5.460125308472286e-11  5.171641881182594e-11   -0.007114170514607277  0.004294386725932762  
1.32000000e+06    -0.007033458948137672  0.004152400631590949   -2.286688565808744e-11  1.280296740561118e-13   1.191016005192818e-16  2.333659230632822e-18  
 		   -0.08499015092950205  0.0006079769138756904   -0.007041321610250839  0.004146158223813192   1.707495758580747e-14  -7.599060627997711e-13  
 		     0.2000731980993794   -0.2114429350555383   -5.648448384356876e-11  5.660738467427707e-11   -0.007041880878369543  0.004142483514149773  
1.36000000e+06    -0.006961198739820817  0.004000777965327309   -2.427762561408929e-11  1.543945206564005e-13   1.270259817021988e-16  3.497072590051607e-18  
 		   -0.08500347843457683  0.0006766624172246527   -0.006969068459547367  0.003994352349867321   2.148117100784012e-14  -7.82513440120507e-13  
 		     0.1944998614667541   -0.2164461440127628   -5.823573310732642e-11  6.174601992915973e-11   -0.006969628025364607  0.003990565979660178  
1.40000000e+06    -0.006888975038301769  0.003849140995904609   -2.573081035149228e-11  1.832039409528667e-13   1.352579318614993e-16  4.781322552744211e-18  
 		   -0.08501675185758285  0.0007453561008821886   -0.006896851978255513  0.003842532281971094   2.614332568322926e-14  -8.050608252584931e-13  
 		     0.1887877252137389   -0.2213111471914334   -5.983915401307548e-11  6.713159777457711e-11   -0.006897411910662844  0.003838634211804995  
1.44000000e+06    -0.006841000572332613  0.003717832386765557   -2.722258530495613e-11  2.110214511343269e-13   1.432740645295944e-16  4.644764252967195e-18  
 		   -0.08501801765291039  0.0008030597617726445   -0.006848882902791287  0.003711040642123065   2.669409083886796e-14  -8.291614255716307e-13  
 		     0.1829423093450058   -0.2259788611299492   -6.12729769418561e-11  7.275187478532685e-11   -0.006849442673223183  0.003707031344531274  
1.48000000e+06    -0.006793041844706748  0.003586533743457161   -2.875640817080471e-11  2.41075137407447e-13   1.51571822507327e-16  4.457364928047194e-18  
 		   -0.08501924236242263  0.000860760668075659   -0.006800929665343625   0.00357955912669687   2.710559957277677e-14  -8.533457351495113e-13  
 		     0.1769660165022844   -0.2305013941971589   -6.252764634870993e-11  7.861396103019424e-11   -0.006801489313551512  0.003575438594347735  
1.52000000e+06    -0.006745098825341689  0.003455245148273253   -3.033227918724392e-11  2.734445168847681e-13   1.601593846516893e-16  4.215990802454271e-18  
 		   -0.08502042597817361  0.0009184587839278086   -0.00675299222816872  0.003448087816347429   2.763459127897881e-14  -8.776033447330695e-13  
 		     0.1708614342943865   -0.2348752314545642   -6.358710715881218e-11  8.471490376212972e-11   -0.006753551793790336  0.003443856041725239  
1.56000000e+06    -0.006697171485995245  0.003323966685240241   -3.195019850261147e-11  3.082090964793663e-13   1.690454104101177e-16  3.917527528984613e-18  
 		   -0.08502156850673463  0.0009761540736996723   -0.006705070556106807  0.003316626793120126   2.807077521305229e-14  -9.01949268521059e-13  
 		     0.1646311799680936   -0.2390968412811556   -6.443491781354345e-11  9.105095605967322e-11   -0.006705630077834646   0.00331228376851982  
1.60000000e+06    -0.006649259800354357  0.003192698440061481   -3.361016616425786e-11  3.454483721973535e-13   1.782390456265883e-16  3.559001857581403e-18  
 		   -0.08502266993409689  0.001033846501001077   -0.006657164615089473  0.003185176140421978   2.860613460792227e-14  -9.263786412203465e-13  
 		     0.1582779030879416   -0.2431626673293142   -6.505464670447862e-11  9.761756644984486e-11   -0.006657724132711262  0.003180721857924754  
1.64000000e+06    -0.006610225150288417  0.003064643192109704   -3.53136734398853e-11  3.880543158908588e-13   1.877934053185156e-16  3.095563769483782e-18  
 		   -0.08502724880143493   0.00109835360072165   -0.006618136727750468  0.003056938936028636   2.801385353892708e-14  -9.496406972165877e-13  
 		     0.1517910504573585   -0.2470916871033448   -6.542113038063262e-11  1.044140837013347e-10   -0.006618696663200585  0.003052373232798684  
1.68000000e+06    -0.006571219612139467  0.002936576673153964   -3.705937197175713e-11  4.335732846166105e-13   1.976706650888237e-16  2.559441748144422e-18  
 		   -0.08503177742908213   0.00116286264809459   -0.00657913804541288  0.002928690593216978   2.734097829253073e-14  -9.72952727811865e-13  
 		     0.1451854336651174   -0.2508569712504967   -6.552486922315902e-11  1.114299937396211e-10   -0.006579698454805328  0.002924013451319369  
1.72000000e+06    -0.006532243169081298  0.002808498940956318   -3.884726624895403e-11  4.820950187273737e-13   2.078800063714156e-16  1.947125755156507e-18  
 		   -0.08503625582547848  0.001227373599007799   -0.006540168544488134   0.00280043116659378   2.659314424768704e-14  -9.962938309450729e-13  
 		     0.1384638509162055   -0.2544547900406996   -6.53488443977656e-11  1.186581924541763e-10   -0.00654072948351181  0.002795642567855455  
