! Created Tue Jul 13 10:25:20 2021
! List of port names and net name(s): example Port n = <port_name> <net_name1> <net_name2> ...
! Port 1 = P1 RF_IN GND GND 
! Port 2 = P2 NetDD1_9 GND 
# hz S ri R 50
! 2 Port Network Data from data block
! freq  reS11  imS11  reS21  imS21  reS12  imS12  reS22  imS22  
!     
                 0    0.000187082237     7.54322646e-07        0.999812903    -2.15041949e-06        0.999812903    -2.15041949e-06     0.000187081957     7.54457215e-07
         100000000    0.000435044962      -0.0131719875        0.993613346      -0.0974152413        0.993613346      -0.0974152413     -0.00178533659      -0.0128797722
         200000000   -0.000109068573      -0.0266937968        0.978350729        -0.19256521        0.978350729        -0.19256521     -0.00870068644      -0.0247592787
         300000000    -0.00120598598      -0.0402098047        0.954012099       -0.285403659        0.954012099       -0.285403659      -0.0197986958      -0.0341531764
         400000000    -0.00283084427      -0.0537353106         0.92083526       -0.375131966         0.92083526       -0.375131966       -0.034289122      -0.0400897546
         500000000     -0.0050162683      -0.0672652453        0.879179235       -0.460933564        0.879179235       -0.460933564       -0.051223632      -0.0417826653
         600000000     -0.0078045776      -0.0807787799        0.829498593       -0.542012419        0.829498593       -0.542012419      -0.0694959925      -0.0386807048
         700000000     -0.0112492503      -0.0942347684        0.772328765       -0.617613294        0.772328765       -0.617613294      -0.0879026647      -0.0304958518
         800000000     -0.0153999947       -0.107570435        0.708286991       -0.687038539        0.708286991       -0.687038539       -0.105195877      -0.0172225291
         900000000     -0.0202977325       -0.120702942        0.638063557       -0.749661522        0.638063557       -0.749661522       -0.120146921     0.000858529349
             1e+09     -0.0259691723       -0.133530069        0.562412164       -0.804937578        0.562412164       -0.804937578       -0.131609446       0.0231926278
           1.1e+09     -0.0324152459       -0.145935789        0.482137615        -0.85241393        0.482137615        -0.85241393       -0.138581672       0.0489701494
           1.2e+09     -0.0396203583       -0.157793283        0.398081691       -0.891736214        0.398081691       -0.891736214       -0.140242618       0.0771694385
           1.3e+09     -0.0475280589       -0.168976573        0.311105999       -0.922651475        0.311105999       -0.922651475       -0.136026826         0.10659793
           1.4e+09     -0.0560640546        -0.17936126        0.222079418       -0.945008969        0.222079418       -0.945008969       -0.125624692        0.135954481
           1.5e+09     -0.0651205045       -0.188833125        0.131859032       -0.958756345        0.131859032       -0.958756345       -0.109016187        0.163883416
           1.6e+09     -0.0745655698       -0.197296955       0.0412781977       -0.963932144       0.0412781977       -0.963932144      -0.0864685731        0.189039428
           1.7e+09     -0.0842433684       -0.204680478      -0.0488663647       -0.960656607      -0.0488663647       -0.960656607      -0.0585307399        0.210145066
           1.8e+09     -0.0939805959       -0.210939499       -0.137821549       -0.949119792       -0.137821549       -0.949119792      -0.0260086867        0.226046441
           1.9e+09      -0.103591732       -0.216061677       -0.224883506        -0.92956853       -0.224883506        -0.92956853       0.0100613511        0.235762732
             2e+09      -0.112885623       -0.220070405       -0.309400326       -0.902292102       -0.309400326       -0.902292102       0.0484527538        0.238525649
           2.1e+09      -0.121671395       -0.223024309       -0.390766825       -0.867613886       -0.390766825       -0.867613886       0.0877902981        0.233809978
           2.2e+09      -0.129766228          -0.225019       -0.468420718        -0.82587886       -0.468420718        -0.82587886        0.126599753        0.221359385
           2.3e+09       -0.13700299       -0.226185489       -0.541835456       -0.777447641       -0.541835456       -0.777447641        0.163354994        0.201200949
           2.4e+09      -0.143230704        -0.22668908       -0.610509198       -0.722694495       -0.610509198       -0.722694495         0.19652686         0.17365261
           2.5e+09      -0.148333401       -0.226723831       -0.673957735       -0.662006465       -0.673957735       -0.662006465        0.224638636        0.139325142
           2.6e+09      -0.152223519       -0.226513259       -0.731704119       -0.595789193       -0.731704119       -0.595789193        0.246313584       0.0991152992
           2.7e+09      -0.154856331       -0.226299013       -0.783273555         -0.5244745       -0.783273555         -0.5244745        0.260328477       0.0541927969
           2.8e+09      -0.156231043       -0.226341602       -0.828189785       -0.448532937       -0.828189785       -0.448532937        0.265665994      0.00597917199
           2.9e+09      -0.156397226       -0.226904494       -0.865976358       -0.368486721       -0.865976358       -0.368486721        0.261566743       -0.043883193
             3e+09      -0.155459134       -0.228249412       -0.896165697       -0.284924183       -0.896165697       -0.284924183        0.247578978      -0.0935733437
           3.1e+09      -0.153576106       -0.230624202       -0.918309332       -0.198513583       -0.918309332       -0.198513583        0.223606099       -0.141146612
           3.2e+09      -0.150962336       -0.234249964       -0.931999184       -0.110014717       -0.931999184       -0.110014717        0.189942955       -0.184602703
           3.3e+09      -0.147883669       -0.239308584       -0.936891438      -0.0202829178       -0.936891438      -0.0202829178        0.147302065       -0.221967778
           3.4e+09      -0.144650867       -0.245928876       -0.932735508       0.0697326768       -0.932735508       0.0697326768       0.0968204437       -0.251387595
           3.5e+09      -0.141608026       -0.254174676       -0.919404487        0.159000812       -0.919404487        0.159000812       0.0400435882       -0.271227677
           3.6e+09       -0.13911797       -0.264035672       -0.896923986         0.24643003       -0.896923986         0.24643003      -0.0211177096       -0.280173707
           3.7e+09      -0.137545253       -0.275420538       -0.865494766        0.330900525       -0.865494766        0.330900525      -0.0844596554       -0.277323164
           3.8e+09       -0.13723653       -0.288157016       -0.825507624        0.411304946       -0.825507624        0.411304946       -0.147583693       -0.262259313
           3.9e+09       -0.13849862       -0.301995416       -0.777543774        0.486595158       -0.777543774        0.486595158       -0.208018364       -0.235096007
             4e+09        -0.1415815       -0.316619979       -0.722364587        0.555827226       -0.722364587        0.555827226       -0.263350132       -0.196489197
           4.1e+09      -0.146662444       -0.331663739       -0.660883273        0.618205748       -0.660883273        0.618205748       -0.311356487       -0.147608892
           4.2e+09      -0.153835378       -0.346728745       -0.594127715        0.673113513       -0.594127715        0.673113513       -0.350125141      -0.0900762015
           4.3e+09      -0.163107372       -0.361406637       -0.523192228        0.720137209       -0.523192228        0.720137209       -0.378149581       -0.025867249
           4.4e+09      -0.174400097       -0.375299882       -0.449187984        0.759070013       -0.449187984        0.759070013       -0.394391342       0.0428006309
           4.5e+09      -0.187557459       -0.388040968       -0.373193775         0.78990377       -0.373193775         0.78990377       -0.398306665        0.113591956
           4.6e+09      -0.202358039       -0.399306967       -0.296212669        0.812807217       -0.296212669        0.812807217       -0.389838459        0.184171674
           4.7e+09      -0.218528485       -0.408831239       -0.219139485        0.828094648       -0.219139485        0.828094648       -0.369377402        0.252309381
           4.8e+09      -0.235759833       -0.416408043       -0.142737988        0.836188818       -0.142737988        0.836188818       -0.337703852        0.315962867
           4.9e+09      -0.253722044       -0.421894517      -0.0676304175        0.837581706      -0.0676304175        0.837581706       -0.295915039        0.373336027
             5e+09       -0.27207683       -0.425208657      0.00570262375        0.832796976      0.00570262375        0.832796976        -0.24535012        0.422913037
