! Created Tue Jul 13 15:05:52 2021
! List of port names and net name(s): example Port n = <port_name> <net_name1> <net_name2> ...
! Port 1 = P1 RF_IN GND GND 
! Port 2 = P2 NetDD1_9 GND 
# hz S ri R 50
! 2 Port Network Data from data block
! freq  reS11  imS11  reS21  imS21  reS12  imS12  reS22  imS22  
!     
                 0    0.000190668687     7.11781774e-07        0.999809336     -2.1383459e-06        0.999809336     -2.1383459e-06     0.000190668655     7.11913805e-07
         100000000    0.000456150532      -0.0118130413           0.993605      -0.0973547153           0.993605      -0.0973547153     -0.00143365694      -0.0115658876
         200000000   -0.000158914056      -0.0240137511        0.978406797       -0.192435619        0.978406797       -0.192435619     -0.00747656579       -0.022371725
         300000000    -0.00140148985       -0.036208454        0.954184209       -0.285231533        0.954184209       -0.285231533      -0.0172499487      -0.0310583496
         400000000    -0.00324208572      -0.0484049259        0.921164233       -0.374957481        0.921164233       -0.374957481      -0.0300836491      -0.0367849007
         500000000    -0.00570873827      -0.0605927134        0.879696399       -0.460808904        0.879696399       -0.460808904      -0.0451823128      -0.0388613661
         600000000    -0.00884635017      -0.0727446271        0.830215956       -0.541999334        0.830215956       -0.541999334       -0.061623102      -0.0367870018
         700000000     -0.0126999341      -0.0848170617        0.773247662        -0.61778063        0.773247662        -0.61778063      -0.0783864866      -0.0302795199
         800000000     -0.0173176867      -0.0967408885        0.709388217       -0.687459242        0.709388217       -0.687459242      -0.0944070829      -0.0192894105
         900000000     -0.0227391447       -0.108437732        0.639309059        -0.75040565        0.639309059        -0.75040565       -0.108653146     -0.00399089642
             1e+09     -0.0289894055       -0.119791749        0.563744048       -0.806071705        0.563744048       -0.806071705       -0.120101488       0.0151892128
           1.1e+09     -0.0360636337       -0.130691986        0.483477675       -0.853992447        0.483477675       -0.853992447       -0.127866971       0.0376262637
           1.2e+09     -0.0439417895       -0.141005923        0.399334965       -0.893796728        0.399334965       -0.893796728       -0.131202843       0.0625035008
           1.3e+09     -0.0525696645       -0.150605254        0.312167684       -0.925210601        0.312167684       -0.925210601       -0.129546264       0.0888500438
           1.4e+09     -0.0618688705        -0.15936004        0.222828209       -0.948059786        0.222828209       -0.948059786       -0.122555826        0.115582949
           1.5e+09     -0.0717269624       -0.167156045        0.132185437       -0.962264402        0.132185437       -0.962264402       -0.110107736        0.141563058
           1.6e+09     -0.0820071438       -0.173894557       0.0410724584       -0.967836285       0.0410724584       -0.967836285      -0.0923308483        0.165632507
           1.7e+09     -0.0925476354       -0.179499967      -0.0497005026       -0.964870463      -0.0497005026       -0.964870463      -0.0695864496        0.186670769
           1.8e+09      -0.103169797       -0.183928379       -0.139360928       -0.953535893       -0.139360928       -0.953535893      -0.0424608929        0.203638608
           1.9e+09      -0.113681759       -0.187166394       -0.227181031       -0.934064085       -0.227181031       -0.934064085      -0.0117437576        0.215619801
             2e+09      -0.123885396       -0.189237515       -0.312479579       -0.906736909       -0.312479579       -0.906736909       0.0215996491        0.221862154
           2.1e+09      -0.133582757       -0.190203311       -0.394624731       -0.871876258       -0.394624731       -0.871876258       0.0564604676        0.221797109
           2.2e+09      -0.142585462       -0.190162503       -0.473025618        -0.82983385       -0.473025618        -0.82983385        0.091619445        0.215075859
           2.3e+09       -0.15071837       -0.189251594        -0.54713182       -0.780986244        -0.54713182       -0.780986244        0.125797164        0.201574745
           2.4e+09      -0.157828849       -0.187642609       -0.616424353       -0.725727737       -0.616424353       -0.725727737        0.157682871        0.181412475
           2.5e+09      -0.163796276       -0.185533086        -0.68040977       -0.664469357        -0.68040977       -0.664469357        0.185982926         0.15495206
           2.6e+09        -0.1685316       -0.183159826       -0.738609107       -0.597642703       -0.738609107       -0.597642703        0.209455837        0.122800027
           2.7e+09      -0.171988744       -0.180770262       -0.790556937       -0.525703681       -0.790556937       -0.525703681        0.226965446       0.0857967678
           2.8e+09      -0.174168903       -0.178629987       -0.835794434        -0.44914192       -0.835794434        -0.44914192        0.237513112       0.0450119235
           2.9e+09       -0.17512495       -0.177010813       -0.873868678       -0.368488203       -0.873868678       -0.368488203        0.240287782      0.00171166037
             3e+09      -0.174963774       -0.176180771       -0.904340466       -0.284331158       -0.904340466       -0.284331158        0.234703735      -0.0426587703
           3.1e+09      -0.173848669       -0.176393707       -0.926790489       -0.197324617       -0.926790489       -0.197324617        0.220442542      -0.0865164816
           3.2e+09      -0.171998707       -0.177876496       -0.940834341       -0.108200101       -0.940834341       -0.108200101        0.197488199       -0.128187481
           3.3e+09      -0.169685264       -0.180816478        -0.94614114      -0.0177720421        -0.94614114      -0.0177720421        0.166156406       -0.165964946
           3.4e+09      -0.167225315       -0.185348617       -0.942458018       0.0730608102       -0.942458018       0.0730608102        0.127111569       -0.198176569
           3.5e+09      -0.164971928        -0.19154311       -0.929635585        0.163321601       -0.929635585        0.163321601       0.0813699755       -0.223261499
           3.6e+09      -0.163298855       -0.199395698       -0.907653555        0.251969727       -0.907653555        0.251969727       0.0302838508       -0.239851081
           3.7e+09      -0.162585828       -0.208820263       -0.876644139        0.337924959       -0.876644139        0.337924959      -0.0244956119       -0.246849225
           3.8e+09       -0.16319781         -0.2196465       -0.836911021        0.420098132       -0.836911021        0.420098132       -0.081078118       -0.243506057
           3.9e+09      -0.165463343       -0.231621869       -0.788937739        0.497430649       -0.788937739        0.497430649        -0.13741466       -0.229475841
             4e+09      -0.169656228       -0.244421374        -0.73338626        0.568937045        -0.73338626        0.568937045       -0.191394691       -0.204853784
           4.1e+09      -0.175980826       -0.257663189       -0.671074046         0.63374296       -0.671074046         0.63374296       -0.240952113       -0.170185442
           4.2e+09      -0.184552017       -0.270921481       -0.602961913        0.691127206       -0.602961913        0.691127206       -0.284173106       -0.126446927
           4.3e+09      -0.195393607       -0.283753593       -0.530104079        0.740545892       -0.530104079        0.740545892       -0.319393183        -0.07499535
           4.4e+09      -0.208434724       -0.295720421       -0.453607043        0.781651853       -0.453607043        0.781651853       -0.345276271      -0.0174950073
           4.5e+09      -0.223516332       -0.306409218       -0.374593477        0.814295462       -0.374593477        0.814295462       -0.360874299       0.0441726448
           4.6e+09      -0.240399268       -0.315450981       -0.294134838         0.83851583       -0.294134838         0.83851583       -0.365645307        0.108007856
           4.7e+09      -0.258780791       -0.322536297       -0.213234079        0.854519481       -0.213234079        0.854519481       -0.359461061        0.171991294
           4.8e+09      -0.278311063       -0.327424274       -0.132784116         0.86265464       -0.132784116         0.86265464        -0.34257873        0.234170393
           4.9e+09      -0.298609659       -0.329947681      -0.0535515367        0.863368262      -0.0535515367        0.863368262       -0.315596901        0.292732408
             5e+09      -0.319282071       -0.330012147       0.0238362797        0.857174733       0.0238362797        0.857174733       -0.279400498        0.346059106
