! Created Tue Jul 13 14:09:45 2021
! List of port names and net name(s): example Port n = <port_name> <net_name1> <net_name2> ...
! Port 1 = P1 RF_IN GND GND 
! Port 2 = P2 NetDD1_9 GND 
# hz S ri R 50
! 2 Port Network Data from data block
! freq  reS11  imS11  reS21  imS21  reS12  imS12  reS22  imS22  
!     
                 0    0.000189754593     7.71721732e-07        0.999810234    -2.11182245e-06        0.999810234    -2.11182245e-06     0.000189754405     7.71832674e-07
         100000000    0.000592411041      -0.0121900739        0.993993967       -0.093700577        0.993993967       -0.093700577     -0.00159863352      -0.0119199453
         200000000    0.000456454859      -0.0247651784        0.979835233       -0.185270108        0.979835233       -0.185270108     -0.00804318826      -0.0229480088
         300000000    2.14595346e-05       -0.037364494        0.957289999       -0.274762485        0.957289999       -0.274762485      -0.0184134774      -0.0316449751
         400000000   -0.000686778627      -0.0500122209         0.92655298       -0.361478486         0.92655298       -0.361478486      -0.0319595211      -0.0370925687
         500000000    -0.00169911848      -0.0627155344        0.887929764       -0.444695465        0.887929764       -0.444695465      -0.0477822693      -0.0385500455
         600000000    -0.00306496617      -0.0754659959        0.841801587       -0.523702818        0.841801587       -0.523702818      -0.0648400088      -0.0354982213
         700000000     -0.0048336904      -0.0882407265        0.788630328       -0.597821618        0.788630328       -0.597821618      -0.0819887623       -0.027672505
         800000000    -0.00706001839       -0.100995109        0.728942221       -0.666418137        0.728942221       -0.666418137      -0.0980491137      -0.0150739573
         900000000    -0.00979491195       -0.113662293        0.663329356       -0.728916457        0.663329356       -0.728916457       -0.111860216      0.00202209202
             1e+09     -0.0130740584       -0.126162319        0.592440905       -0.784808104        0.592440905       -0.784808104        -0.12233994       0.0230813752
           1.1e+09     -0.0169179501       -0.138396823        0.516974009       -0.833661053        0.516974009       -0.833661053       -0.128547678       0.0473262131
           1.2e+09     -0.0213395857       -0.150251208        0.437661906       -0.875127855        0.437661906       -0.875127855       -0.129715231       0.0737815268
           1.3e+09     -0.0262916454       -0.161617603        0.355255199       -0.908942206        0.355255199       -0.908942206        -0.12531365        0.101299902
           1.4e+09     -0.0317324984       -0.172378119        0.270518046       -0.934928807        0.270518046       -0.934928807       -0.115067989        0.128638272
           1.5e+09     -0.0375883329        -0.18242249        0.184208538       -0.952994874        0.184208538       -0.952994874      -0.0989785466        0.154503261
           1.6e+09      -0.043749941        -0.19165094       0.0970673171       -0.963127338       0.0970673171       -0.963127338      -0.0773223068        0.177611754
           1.7e+09     -0.0501070595       -0.199983098      0.00981070235        -0.96538297      0.00981070235        -0.96538297      -0.0506450564        0.196746826
           1.8e+09     -0.0565020838       -0.207358448      -0.0768823114       -0.959879506      -0.0768823114       -0.959879506      -0.0197471548        0.210817178
           1.9e+09     -0.0627800798       -0.213742262       -0.162370998       -0.946785175       -0.162370998       -0.946785175       0.0143533456        0.218898662
             2e+09     -0.0687701355       -0.219128036       -0.246053869       -0.926305625       -0.246053869       -0.926305625       0.0504535358        0.220276882
           2.1e+09     -0.0742973678       -0.223544604       -0.327365964       -0.898675893       -0.327365964       -0.898675893       0.0872090373        0.214479106
           2.2e+09     -0.0791891807       -0.227050304       -0.405775223       -0.864150277       -0.405775223       -0.864150277        0.123180098         0.20129754
           2.3e+09     -0.0832752771       -0.229737543       -0.480776078       -0.822999001       -0.480776078       -0.822999001        0.156881761        0.180805612
           2.4e+09     -0.0863953257        -0.23172726       -0.551879673       -0.775503007       -0.551879673       -0.775503007        0.186833757        0.153365438
           2.5e+09     -0.0884183517       -0.233185403       -0.618603454       -0.721957517       -0.618603454       -0.721957517        0.211613295         0.11963025
           2.6e+09     -0.0892272959       -0.234293936       -0.680466047       -0.662673112       -0.680466047       -0.662673112        0.229905521       0.0805350682
           2.7e+09     -0.0887419084       -0.235268808       -0.736978292       -0.597989067       -0.736978292       -0.597989067        0.240560942       0.0372842544
           2.8e+09     -0.0869177646       -0.236346736       -0.787640288       -0.528284502       -0.787640288       -0.528284502        0.242646661     -0.00867241184
           2.9e+09     -0.0837545553       -0.237779747       -0.831944458        -0.45398863       -0.831944458        -0.45398863        0.235500105      -0.0556751813
             3e+09     -0.0793007507       -0.239828624       -0.869380169       -0.375599829       -0.869380169       -0.375599829        0.218779123       -0.101899365
           3.1e+09     -0.0736578953       -0.242752875       -0.899446903       -0.293698744       -0.899446903       -0.293698744        0.192506984       -0.145415824
           3.2e+09     -0.0669826948       -0.246799401       -0.921673265       -0.208959933       -0.921673265       -0.208959933        0.157106135       -0.184265808
           3.3e+09     -0.0594866601       -0.252189335       -0.935642057       -0.122159358       -0.935642057       -0.122159358        0.113419259       -0.216546297
           3.4e+09     -0.0514325531       -0.259106324       -0.941016704      -0.0341756129       -0.941016704      -0.0341756129       0.0627084932       -0.240504341
           3.5e+09     -0.0431277988       -0.267681091       -0.937574393       0.0540252258       -0.937574393       0.0540252258      0.00662795626       -0.254643424
           3.6e+09     -0.0349125858       -0.277980937       -0.925234019        0.141403815       -0.925234019        0.141403815      -0.0528266707       -0.257817789
           3.7e+09     -0.0271444492       -0.290001477       -0.904084096        0.226879931       -0.904084096        0.226879931       -0.113402663       -0.249321562
           3.8e+09     -0.0201805411       -0.303657931       -0.874393144        0.309372234       -0.874393144        0.309372234       -0.172696122        -0.22895067
           3.9e+09     -0.0143623233       -0.318791336       -0.836617344        0.387840906       -0.836617344        0.387840906       -0.228281176       -0.197033628
             4e+09    -0.00999081917       -0.335170335       -0.791390159        0.461334881       -0.791390159        0.461334881       -0.277841516       -0.154438456
           4.1e+09     -0.0073123825       -0.352501084       -0.739498759         0.52903174       -0.739498759         0.52903174       -0.319295764       -0.102519709
           4.2e+09    -0.00650875259       -0.370444465        -0.68184871        0.590272173        -0.68184871        0.590272173       -0.350914938      -0.0430466749
           4.3e+09    -0.00768538206       -0.388634143       -0.619420891        0.644582161       -0.619420891        0.644582161       -0.371402644       0.0218993227
           4.4e+09     -0.0108705205       -0.406695612       -0.553222106        0.691680323       -0.553222106        0.691680323        -0.37994331       0.0900451345
           4.5e+09     -0.0160179417       -0.424261991       -0.484241506         0.73147161       -0.484241506         0.73147161       -0.376217007         0.15904693
           4.6e+09     -0.0230144206       -0.440990875       -0.413407138        0.764029751       -0.413407138        0.764029751       -0.360378013        0.226604649
           4.7e+09     -0.0316902668       -0.456576938       -0.341554366        0.789566556       -0.341554366        0.789566556       -0.333008524        0.290558818
           4.8e+09     -0.0418307467       -0.470757384       -0.269403729         0.80840321       -0.269403729         0.80840321       -0.295054706        0.348962693
           4.9e+09     -0.0531886144       -0.483318167       -0.197546075        0.820929797       -0.197546075        0.820929797       -0.247750889        0.400132303
             5e+09     -0.0654954958       -0.494093583       -0.126444493        0.827572126       -0.126444493        0.827572126       -0.192549289        0.442671666
