! Created Tue Jul 13 11:38:58 2021
! List of port names and net name(s): example Port n = <port_name> <net_name1> <net_name2> ...
! Port 1 = P1 RF_IN GND GND 
! Port 2 = P2 NetDD1_9 GND 
# hz S ri R 50
! 2 Port Network Data from data block
! freq  reS11  imS11  reS21  imS21  reS12  imS12  reS22  imS22  
!     
                 0    0.000187884022      7.9845709e-07         0.99981211     -2.1124157e-06         0.99981211     -2.1124157e-06     0.000187884045     7.98579556e-07
         100000000     0.00058979379      -0.0138835413         0.99386562      -0.0949035868         0.99386562      -0.0949035868     -0.00201838991      -0.0135594541
         200000000    0.000533017074      -0.0281475901          0.9792967       -0.187632486          0.9792967       -0.187632486     -0.00958238682      -0.0259611136
         300000000    0.000238832826      -0.0424729432        0.956078636       -0.278191822        0.956078636       -0.278191822      -0.0216882212      -0.0355853335
         400000000   -0.000280008144      -0.0569042543        0.924422173       -0.365841403        0.924422173       -0.365841403      -0.0374449226      -0.0413422887
         500000000    -0.00107269014      -0.0714644959        0.884650257       -0.449816764        0.884650257       -0.449816764      -0.0557731875      -0.0423578184
         600000000    -0.00219937785      -0.0861601089        0.837175985       -0.529366889        0.837175985       -0.529366889      -0.0754132515      -0.0380303254
         700000000    -0.00373435102       -0.100971594        0.782490131       -0.603773165        0.782490131       -0.603773165      -0.0949935433      -0.0280649418
         800000000    -0.00575642861       -0.115858865        0.721160293        -0.67236625        0.721160293        -0.67236625       -0.113099891      -0.0124908651
         900000000    -0.00833390473       -0.130756252        0.653829566       -0.734541378        0.653829566       -0.734541378       -0.128343983      0.00832799009
             1e+09      -0.011524196        -0.14557486        0.581204327       -0.789769387        0.581204327       -0.789769387       -0.139441696       0.0337115948
           1.1e+09     -0.0153625225       -0.160210199        0.504042198       -0.837606049        0.504042198       -0.837606049       -0.145273874       0.0626846028
           1.2e+09     -0.0198660127       -0.174536451        0.423146233       -0.877708778        0.423146233       -0.877708778       -0.144989188       0.0940568525
           1.3e+09     -0.0250106717       -0.188428956        0.339328731       -0.909823822        0.339328731       -0.909823822       -0.137966657        0.126406751
           1.4e+09     -0.0307646992       -0.201755143        0.253421072       -0.933805816        0.253421072       -0.933805816       -0.123947473        0.158233487
           1.5e+09     -0.0370508001       -0.214393805        0.166236613       -0.949602969        0.166236613       -0.949602969       -0.102988555        0.187977318
           1.6e+09     -0.0437702274       -0.226232111        0.078565301        -0.95725399        0.078565301        -0.95725399      -0.0754878625        0.214108898
           1.7e+09     -0.0507966647       -0.237177027     -0.00884153542        -0.95687658     -0.00884153542        -0.95687658      -0.0421661047        0.235195883
           1.8e+09     -0.0579855336       -0.247156589      -0.0952792361       -0.948655045      -0.0952792361       -0.948655045     -0.00403625668        0.249969091
           1.9e+09     -0.0651752333       -0.256132022       -0.180095322       -0.932824956       -0.180095322       -0.932824956       0.0376345462        0.257375846
             2e+09     -0.0721945151       -0.264090135       -0.262690033       -0.909660684       -0.262690033       -0.909660684       0.0813728268        0.256623239
           2.1e+09     -0.0788672477       -0.271052504       -0.342512988       -0.879461151       -0.342512988       -0.879461151        0.125552545        0.247214328
           2.2e+09     -0.0850190644        -0.27707396       -0.419057005       -0.842540256       -0.419057005       -0.842540256        0.168448404        0.228967487
           2.3e+09     -0.0904840879       -0.282242999       -0.491847725       -0.799218255       -0.491847725       -0.799218255        0.208300955        0.202038441
           2.4e+09     -0.0951097227       -0.286680016       -0.560433874       -0.749819459       -0.560433874       -0.749819459        0.243367235        0.166917704
           2.5e+09     -0.0987632588       -0.290536531       -0.624375094       -0.694672581       -0.624375094       -0.694672581        0.271984048        0.124433156
           2.6e+09      -0.101338155        -0.29399205       -0.683231627        -0.63411658       -0.683231627        -0.63411658        0.292626935       0.0757383376
           2.7e+09      -0.102758673       -0.297250087        -0.73655614       -0.568509174        -0.73655614       -0.568509174        0.303970462       0.0222984038
           2.8e+09      -0.102987962       -0.300532818       -0.783889843       -0.498242575       -0.783889843       -0.498242575        0.304947257      -0.0341444308
           2.9e+09      -0.102029031        -0.30407707       -0.824760872       -0.423755968       -0.824760872       -0.423755968        0.294812877       -0.091604171
             3e+09      -0.099934789       -0.308123899       -0.858693083       -0.345556289       -0.858693083       -0.345556289        0.273200704        -0.14790732
           3.1e+09     -0.0968066292       -0.312910511       -0.885218094       -0.264232653       -0.885218094       -0.264232653        0.240176573       -0.200760988
           3.2e+09     -0.0927977269       -0.318659424       -0.903897563       -0.180471339       -0.903897563       -0.180471339        0.196279856       -0.247841011
           3.3e+09     -0.0881124873       -0.325565162       -0.914344926      -0.0950593078       -0.914344926      -0.0950593078        0.142548392       -0.286893059
           3.4e+09     -0.0830010052       -0.333784445       -0.916262913     -0.00888876666       -0.916262913     -0.00888876666       0.0805181492       -0.315850828
           3.5e+09     -0.0777511503       -0.343420342       -0.909475535       0.0770570661       -0.909475535       0.0770570661        0.012191992       -0.332958616
           3.6e+09     -0.0726777908       -0.354513303       -0.893954552        0.161725992       -0.893954552        0.161725992       -0.060025128       -0.336888492
           3.7e+09     -0.0681071456       -0.367035609       -0.869852568        0.244031898       -0.869852568        0.244031898       -0.133430452       -0.326846968
           3.8e+09       -0.06435876       -0.380886095       -0.837513436        0.322896885       -0.837513436        0.322896885       -0.205155643       -0.302649109
           3.9e+09     -0.0617276039         -0.3958927       -0.797474959        0.397300761       -0.797474959        0.397300761       -0.272323204       -0.264754834
             4e+09     -0.0604670916       -0.411820381       -0.750454827         0.46632967       -0.750454827         0.46632967       -0.332210198         -0.2142583
           4.1e+09     -0.0607737624       -0.428383471       -0.697321332        0.529219956       -0.697321332        0.529219956       -0.382403582       -0.152829084
           4.2e+09     -0.0627773604       -0.445261599       -0.639051815         0.58539119       -0.639051815         0.58539119       -0.420930802      -0.0826108508
           4.3e+09     -0.0665356233       -0.462117834       -0.576683024        0.634465126       -0.576683024        0.634465126       -0.446352782     -0.00608853481
           4.4e+09     -0.0720358611       -0.478615497       -0.511259322        0.676268541       -0.511259322        0.676268541       -0.457812262       0.0740606797
           4.5e+09      -0.079199309       -0.494438386       -0.443782613        0.710821363       -0.443782613        0.710821363       -0.455036741        0.155116287
           4.6e+09     -0.0878900823       -0.509298429       -0.375171906        0.738312007       -0.375171906        0.738312007       -0.438301152        0.234448177
           4.7e+09     -0.0979281529       -0.522948091       -0.306231501        0.759063469       -0.306231501        0.759063469       -0.408359731        0.309626065
           4.8e+09      -0.109100818       -0.535184586       -0.237631942        0.773495312       -0.237631942        0.773495312       -0.366359673        0.378497698
           4.9e+09      -0.121174736       -0.545851064       -0.169902243        0.782084797       -0.169902243        0.782084797       -0.313747783        0.439235511
             5e+09      -0.133905898       -0.554834062       -0.103431887        0.785330614       -0.103431887        0.785330614       -0.252180254         0.49035485
