! Created Tue Jul 13 13:06:56 2021
! List of port names and net name(s): example Port n = <port_name> <net_name1> <net_name2> ...
! Port 1 = P1 RF_IN GND GND 
! Port 2 = P2 NetDD1_9 GND 
# hz S ri R 50
! 2 Port Network Data from data block
! freq  reS11  imS11  reS21  imS21  reS12  imS12  reS22  imS22  
!     
                 0    0.000189700457     7.84723801e-07        0.999810289    -2.13288134e-06        0.999810289    -2.13288134e-06     0.000189700323     7.84838052e-07
         100000000    0.000531157245      -0.0103702645        0.993802636      -0.0959058053        0.993802636      -0.0959058053     -0.00124027431      -0.0101387894
         200000000    0.000201561137      -0.0211252191        0.979085124       -0.189625559        0.979085124       -0.189625559     -0.00665526608      -0.0195997639
         300000000    -0.00055850471      -0.0318993591        0.955623862       -0.281172839        0.955623862       -0.281172839      -0.0154084265      -0.0271296071
         400000000    -0.00172617735      -0.0427124573        0.923624281       -0.369805388        0.923624281       -0.369805388      -0.0268812644      -0.0319690935
         500000000    -0.00332812619      -0.0535677367        0.883414952       -0.454759686        0.883414952       -0.454759686      -0.0403368098      -0.0335011726
         600000000    -0.00541416613       -0.064452057        0.835397125       -0.535286694        0.835397125       -0.535286694      -0.0549291257      -0.0312848575
         700000000    -0.00803799188      -0.0753350832        0.780054586       -0.610671171        0.780054586       -0.610671171      -0.0697256712       -0.025080151
         800000000     -0.0112551126      -0.0861629287        0.717940989        -0.68024479        0.717940989        -0.68024479      -0.0837635459      -0.0148604321
         900000000     -0.0151081955      -0.0968602817         0.64968011        -0.74340037         0.64968011        -0.74340037      -0.0960848985     -0.00081842606
             1e+09     -0.0196431446        -0.10734428        0.575954568       -0.799597825        0.575954568       -0.799597825       -0.105789889       0.0166412125
           1.1e+09     -0.0248627929       -0.117499452        0.497497695        -0.84837852        0.497497695        -0.84837852       -0.112080244       0.0369202229
           1.2e+09     -0.0307586555       -0.127207104        0.415078656        -0.88936607        0.415078656        -0.88936607       -0.114290792       0.0592406578
           1.3e+09     -0.0372998006        -0.13634634        0.329498618       -0.922272612        0.329498618       -0.922272612       -0.111951782       0.0827016398
           1.4e+09     -0.0444213191       -0.144793602        0.241568361       -0.946901082        0.241568361       -0.946901082       -0.104780943        0.106297642
           1.5e+09     -0.0520314836       -0.152434018        0.152099778       -0.963142118        0.152099778       -0.963142118      -0.0927192472        0.128974936
           1.6e+09     -0.0600106563       -0.159167519       0.0618930534       -0.970970936       0.0618930534       -0.970970936      -0.0759313291        0.149674929
           1.7e+09      -0.068216481       -0.164913135      -0.0282722558       -0.970440877      -0.0282722558       -0.970440877      -0.0547998536        0.167384426
           1.8e+09     -0.0764851966       -0.169616053       -0.117650014       -0.961674781       -0.117650014       -0.961674781      -0.0299195569        0.181168658
           1.9e+09     -0.0846382215       -0.173252107       -0.205528174       -0.944854431       -0.205528174       -0.944854431     -0.00207015988        0.190224889
             2e+09     -0.0924877163       -0.175830685       -0.291234069       -0.920211724       -0.291234069       -0.920211724       0.0278093717        0.193908862
           2.1e+09     -0.0998430287       -0.177397153       -0.374134081       -0.888019102       -0.374134081       -0.888019102       0.0586534807        0.191763818
           2.2e+09      -0.106517738        -0.17803398       -0.453630859       -0.848581447       -0.453630859       -0.848581447       0.0893072183         0.18354273
           2.3e+09       -0.11233558       -0.177861507       -0.529159256       -0.802230157       -0.529159256       -0.802230157        0.118565996        0.169220375
           2.4e+09      -0.117139516       -0.177034328       -0.600178235       -0.749319962       -0.600178235       -0.749319962        0.145213913        0.149009466
           2.5e+09      -0.120800275       -0.175741616        -0.66616838       -0.690228043        -0.66616838       -0.690228043        0.168068777        0.123353769
           2.6e+09      -0.123213984       -0.174200224       -0.726622401       -0.625356878       -0.726622401       -0.625356878        0.186023738       0.0929282285
           2.7e+09      -0.124321696       -0.172655287       -0.781042569       -0.555140748       -0.781042569       -0.555140748        0.198089556       0.0586278554
           2.8e+09      -0.124107252       -0.171367806       -0.828937613       -0.480053109       -0.828937613       -0.480053109        0.203435473       0.0215506197
           2.9e+09      -0.122604178       -0.170609508       -0.869826016       -0.400617067       -0.869826016       -0.400617067        0.201433685      -0.0170318164
             3e+09       -0.11990161       -0.170652648       -0.903239854       -0.317415755       -0.903239854       -0.317415755        0.191696286      -0.0557013807
           3.1e+09      -0.116144029       -0.171760701       -0.928735866       -0.231103992       -0.928735866       -0.231103992        0.174108118       -0.092941751
           3.2e+09      -0.111533013       -0.174174108       -0.945911057        -0.14241507       -0.945911057        -0.14241507        0.148857711       -0.127190151
           3.3e+09      -0.106325364       -0.178098359       -0.954421798      -0.0521655707       -0.954421798      -0.0521655707        0.116454503       -0.156898174
           3.4e+09      -0.100825639       -0.183691082       -0.954007484        0.038746044       -0.954007484        0.038746044       0.0777331039       -0.180601898
           3.5e+09     -0.0953785269       -0.191048497       -0.944514774        0.129348199       -0.944514774        0.129348199       0.0338440335       -0.196995113
           3.6e+09     -0.0903548784       -0.200195491       -0.925921465        0.218612851       -0.925921465        0.218612851      -0.0137776232       -0.205004178
           3.7e+09     -0.0861358471       -0.211077895       -0.898356845        0.305480132       -0.898356845        0.305480132      -0.0634618184       -0.203856153
           3.8e+09     -0.0830942663       -0.223558966       -0.862115079        0.388890157       -0.862115079        0.388890157       -0.113372382       -0.193135546
           3.9e+09     -0.0815753266       -0.237421694       -0.817662558        0.467819339       -0.817662558        0.467819339       -0.161592535       -0.172823943
             4e+09     -0.0818764549       -0.252373931       -0.765626707        0.541321428       -0.765626707        0.541321428       -0.206218679       -0.143313448
           4.1e+09     -0.0842312461       -0.268062976       -0.706784796        0.608562249       -0.706784796        0.608562249         -0.2454596        -0.10539839
           4.2e+09     -0.0887957064       -0.284090781       -0.642032447        0.668851548       -0.642032447        0.668851548       -0.277727063       -0.060237028
           4.3e+09     -0.0956401883       -0.300032739       -0.572350035        0.721667173       -0.572350035        0.721667173       -0.301714336     -0.00929197786
           4.4e+09      -0.104747252        -0.31546023       -0.498760287        0.766666764       -0.498760287        0.766666764        -0.31645446       0.0457484816
           4.5e+09      -0.116013495       -0.329958563       -0.422286998        0.803686748       -0.422286998        0.803686748       -0.321353236         0.10305675
           4.6e+09      -0.129258528       -0.343145382       -0.343915202        0.832732065       -0.343915202        0.832732065        -0.31619787        0.160755991
           4.7e+09      -0.144235334       -0.354685772       -0.264558844        0.853954236       -0.264558844        0.853954236        -0.30114314        0.217005225
           4.8e+09      -0.160644888       -0.364300817       -0.185034309         0.86762454       -0.185034309         0.86762454       -0.276678711        0.270068305
           4.9e+09      -0.178150131       -0.371774235        -0.10604442        0.874101991        -0.10604442        0.874101991       -0.243581588        0.318372876
             5e+09      -0.196389946        -0.37695423      -0.0281721292        0.873800278      -0.0281721292        0.873800278        -0.20286523        0.360549204
