! Created Wed Jul 14 08:50:00 2021
! List of port names and net name(s): example Port n = <port_name> <net_name1> <net_name2> ...
! Port 1 = P1 RF_IN GND GND 
! Port 2 = P2 NetDD1_9 GND 
# hz S ri R 50
! 2 Port Network Data from data block
! freq  reS11  imS11  reS21  imS21  reS12  imS12  reS22  imS22  
!     
                 0    0.000182007563    -8.48485068e-06        0.999817929     7.28944467e-06        0.999817929     7.28944467e-06     0.000182007578    -8.48480052e-06
         100000000     0.00060045344      0.00644718033        0.991887575       -0.111514963        0.991887575       -0.111514963      0.00161981096      0.00628366004
         200000000     0.00102132342       0.0126342914        0.972206685       -0.220002476        0.972206685       -0.220002476       0.0048981757       0.0115907647
         300000000     0.00167965623       0.0186167139        0.940888587       -0.325212585        0.940888587       -0.325212585       0.0099100007       0.0154299262
         400000000     0.00250713654       0.0241846176        0.898334235       -0.426031333        0.898334235       -0.426031333       0.0161054945       0.0171627644
         500000000     0.00333860056       0.0291974363         0.84510505       -0.521341649         0.84510505       -0.521341649       0.0227296227       0.0163740194
         600000000     0.00396104661        0.033580858        0.781878955       -0.610072801        0.781878955       -0.610072801       0.0289125538       0.0128961869
         700000000     0.00413137023       0.0373289188        0.709432606       -0.691225246        0.709432606       -0.691225246       0.0337405993      0.00683116862
         800000000     0.00360352753       0.0405129903          0.6286346       -0.763881289          0.6286346       -0.763881289       0.0363374616     -0.00144606233
         900000000     0.00214702729       0.0432773015        0.540432425       -0.827209713        0.540432425       -0.827209713       0.0359362243      -0.0113000963
             1e+09   -0.000432791367       0.0458386358        0.445849223       -0.880466102        0.445849223       -0.880466102       0.0319525897      -0.0218662383
           1.1e+09    -0.00427283336       0.0484692732        0.345979213       -0.923000828        0.345979213       -0.923000828         0.02404329      -0.0321057882
           1.2e+09    -0.00944271216       0.0514865806        0.241986524       -0.954259381        0.241986524       -0.954259381       0.0121532924      -0.0408646907
           1.3e+09     -0.0159273786       0.0552323237        0.135107083       -0.973793935        0.135107083       -0.973793935     -0.00344719325      -0.0469549737
           1.4e+09     -0.0236267182       0.0600530603       0.0266458553       -0.981275765       0.0266458553       -0.981275765      -0.0221562592      -0.0492387323
           1.5e+09     -0.0323457303       0.0662805805      -0.0820277857       -0.976515033      -0.0820277857       -0.976515033      -0.0430467326      -0.0467196573
           1.6e+09     -0.0418074839       0.0741905302       -0.189489892         -0.9594776       -0.189489892         -0.9594776      -0.0649004066      -0.0386343919
           1.7e+09     -0.0516582583       0.0840044071       -0.294284043       -0.930311974       -0.294284043       -0.930311974      -0.0862657163      -0.0245311096
           1.8e+09     -0.0614875669       0.0958513403       -0.394947287       -0.889363919       -0.394947287       -0.889363919        -0.10554367     -0.00433867965
           1.9e+09     -0.0708520356         0.10975841       -0.490047723       -0.837188953       -0.490047723       -0.837188953       -0.121086776       0.0215873101
             2e+09     -0.0793017786        0.125642688         -0.5782267       -0.774555489         -0.5782267       -0.774555489       -0.131317844       0.0524525898
           2.1e+09      -0.086411288        0.143309415       -0.658244128       -0.702434044       -0.658244128       -0.702434044       -0.134844064       0.0870415302
           2.2e+09     -0.0918098718        0.162461202       -0.729021322       -0.621972473       -0.729021322       -0.621972473       -0.130575563        0.123765887
           2.3e+09      -0.095205754        0.182713802       -0.789674511       -0.534459175       -0.789674511       -0.534459175        -0.11781666         0.16074986
           2.4e+09     -0.0964096907        0.203620889       -0.839541272       -0.441277838       -0.839541272       -0.441277838       -0.096337974        0.195935706
           2.5e+09     -0.0953460538        0.224702061       -0.878187705       -0.343855015       -0.878187705       -0.343855015      -0.0664120964        0.227204213
           2.6e+09     -0.0920586353        0.245473121       -0.905402003       -0.243610184       -0.905402003       -0.243610184      -0.0288199392        0.252499739
           2.7e+09     -0.0867048665        0.265477058       -0.921173392        -0.14190957       -0.921173392        -0.14190957       0.0151776197         0.26994993
           2.8e+09     -0.0795468483        0.284308877       -0.925658782      -0.0400332278       -0.925658782      -0.0400332278       0.0638912475        0.277967327
           2.9e+09      -0.070933664         0.30164174       -0.919144526       0.0608466096       -0.919144526       0.0608466096        0.115276479         0.27533714
             3e+09     -0.0612789478         0.31723925        -0.90200284         0.15967186        -0.90200284         0.15967186        0.167015336        0.261283432
           3.1e+09     -0.0510400082        0.330970039       -0.874654744        0.255489467       -0.874654744        0.255489467        0.216606095        0.235515937
           3.2e+09     -0.0406924985        0.342813611       -0.837539065        0.347431005       -0.837539065        0.347431005        0.261453243          0.1982641
           3.3e+09     -0.0307080045         0.35286043       -0.791092564        0.434682077       -0.791092564        0.434682077        0.298960455        0.150299501
           3.4e+09     -0.0215297598        0.361312253       -0.735745342          0.5164468       -0.735745342          0.5164468        0.326627178       0.0929497916
           3.5e+09      -0.013549916        0.368475447       -0.671931989        0.591911849       -0.671931989        0.591911849        0.342151902       0.0281075704
           3.6e+09    -0.00708601362        0.374752382       -0.600118554        0.660215119       -0.600118554        0.660215119        0.343552852      -0.0417771476
           3.7e+09    -0.00235718655        0.380627915       -0.520846325        0.720425714       -0.520846325        0.720425714        0.329301677       -0.113720619
           3.8e+09    0.000538912192         0.38664924       -0.434786288        0.771541027       -0.434786288        0.771541027        0.298480217       -0.184267715
           3.9e+09     0.00164778318        0.393397838       -0.342805066        0.812510885       -0.342805066        0.812510885        0.250936167       -0.249588062
             4e+09     0.00117350319        0.401454511       -0.246021631        0.842286592       -0.246021631        0.842286592        0.187445378       -0.305655356
           4.1e+09   -0.000513618894        0.411353341       -0.145853992        0.859905205       -0.145853992        0.859905205        0.109831165       -0.348482729
           4.2e+09    -0.00288540198         0.42353035      -0.0440321502        0.864597365      -0.0440321502        0.864597365       0.0210174856       -0.374433181
           4.3e+09    -0.00528101403        0.438273029       0.0574299173        0.855910182       0.0574299173        0.855910182      -0.0750273079       -0.380572352
           4.4e+09    -0.00695393333        0.455672801        0.156322229        0.833826221        0.156322229        0.833826221       -0.173479128       -0.365020994
           4.5e+09    -0.00713666042        0.475599992        0.250369515        0.798848244        0.250369515        0.798848244       -0.268993349       -0.327238385
           4.6e+09    -0.00511262699        0.497699749        0.337405027        0.752031764        0.337405027        0.752031764       -0.356146351       -0.268186333
           4.7e+09   -0.000292652208         0.52141733        0.415552328        0.694943149        0.415552328        0.694943149       -0.429927931       -0.190307128
           4.8e+09       0.007728111        0.546052731        0.483380316        0.629549316        0.483380316        0.629549316       -0.486201959      -0.0973168672
           4.9e+09      0.0191366076        0.570831437        0.540006072        0.558054251        0.540006072        0.558054251       -0.522049246      0.00616129546
             5e+09      0.0338976137        0.594978152         0.58512658        0.482711448         0.58512658        0.482711448       -0.535940289        0.115049734
