!Agilent Technologies,N5230A,MY45001891,A.06.04.21
!Agilent N5230A: A.06.04.21
!Date: Friday, April 29, 2022 17:01:50
!Correction: S11(Off) S21(Off) S12(Off) S22(Off) 
!S2P File: Measurements: S11, S21, S12, S22:
# Hz S  dB   R 50
300000 -2.556092e+001 1.332089e+002 -2.106969e+001 -1.779300e+002 -6.775806e+002 8.999393e+001 -6.808807e+002 8.999111e+001
304640.625 -2.560738e+001 1.322476e+002 -2.126401e+001 -1.784778e+002 -6.775806e+002 8.999393e+001 -6.808807e+002 8.999111e+001
309281.25 -2.570928e+001 1.338045e+002 -2.134558e+001 -1.779611e+002 -6.775806e+002 8.999393e+001 -6.808807e+002 8.999111e+001
313921.875 -2.580894e+001 1.348667e+002 -2.142154e+001 -1.790491e+002 -6.775806e+002 8.999393e+001 -6.808807e+002 8.999111e+001
318562.5 -2.592200e+001 1.338551e+002 -2.130368e+001 -1.779451e+002 -6.775806e+002 8.999393e+001 -6.808807e+002 8.999111e+001
323203.125 -2.597280e+001 1.347020e+002 -2.150915e+001 -1.787261e+002 -6.775806e+002 8.999393e+001 -6.808807e+002 8.999111e+001
327843.75 -2.608816e+001 1.335430e+002 -2.128828e+001 -1.782896e+002 -6.775806e+002 8.999393e+001 -6.808807e+002 8.999111e+001
332484.375 -2.624100e+001 1.340736e+002 -2.123949e+001 -1.788858e+002 -6.775806e+002 8.999393e+001 -6.808807e+002 8.999111e+001
337125 -2.622809e+001 1.337174e+002 -2.133309e+001 -1.787608e+002 -6.775806e+002 8.999393e+001 -6.808807e+002 8.999111e+001
341765.625 -2.633686e+001 1.343755e+002 -2.144345e+001 -1.791715e+002 -6.775806e+002 8.999393e+001 -6.808807e+002 8.999111e+001
346406.25 -2.621575e+001 1.341030e+002 -2.146823e+001 -1.782171e+002 -6.775806e+002 8.999393e+001 -6.808807e+002 8.999111e+001
351046.875 -2.641344e+001 1.349954e+002 -2.144560e+001 -1.777713e+002 -6.775806e+002 8.999393e+001 -6.808807e+002 8.999111e+001
355687.5 -2.669215e+001 1.347756e+002 -2.132903e+001 -1.795981e+002 -6.775806e+002 8.999393e+001 -6.808807e+002 8.999111e+001
360328.125 -2.656270e+001 1.345506e+002 -2.133715e+001 -1.781761e+002 -6.775806e+002 8.999393e+001 -6.808807e+002 8.999111e+001
364968.75 -2.686003e+001 1.342427e+002 -2.123678e+001 -1.791953e+002 -6.775806e+002 8.999393e+001 -6.808807e+002 8.999111e+001
369609.375 -2.663310e+001 1.328601e+002 -2.122775e+001 -1.785385e+002 -6.775806e+002 8.999393e+001 -6.808807e+002 8.999111e+001
374250 -2.691636e+001 1.330809e+002 -2.125374e+001 -1.791383e+002 -6.775806e+002 8.999393e+001 -6.808807e+002 8.999111e+001
378890.625 -2.685090e+001 1.349468e+002 -2.140314e+001 -1.793409e+002 -6.775806e+002 8.999393e+001 -6.808807e+002 8.999111e+001
383531.25 -2.688110e+001 1.333493e+002 -2.113156e+001 -1.785915e+002 -6.775806e+002 8.999393e+001 -6.808807e+002 8.999111e+001
388171.875 -2.696767e+001 1.334624e+002 -2.120168e+001 -1.785208e+002 -6.775806e+002 8.999393e+001 -6.808807e+002 8.999111e+001
392812.5 -2.698876e+001 1.336610e+002 -2.132056e+001 -1.781382e+002 -6.775806e+002 8.999393e+001 -6.808807e+002 8.999111e+001
397453.125 -2.715578e+001 1.345090e+002 -2.140522e+001 -1.791052e+002 -6.775806e+002 8.999393e+001 -6.808807e+002 8.999111e+001
402093.75 -2.718739e+001 1.344016e+002 -2.127521e+001 -1.788445e+002 -6.775806e+002 8.999393e+001 -6.808807e+002 8.999111e+001
406734.375 -2.720588e+001 1.333741e+002 -2.134935e+001 -1.787450e+002 -6.775806e+002 8.999393e+001 -6.808807e+002 8.999111e+001
411375 -2.723109e+001 1.349210e+002 -2.123801e+001 -1.793657e+002 -6.775806e+002 8.999393e+001 -6.808807e+002 8.999111e+001
416015.625 -2.733677e+001 1.345079e+002 -2.134532e+001 -1.794115e+002 -6.775806e+002 8.999393e+001 -6.808807e+002 8.999111e+001
420656.25 -2.730404e+001 1.336265e+002 -2.126773e+001 -1.796751e+002 -6.775806e+002 8.999393e+001 -6.808807e+002 8.999111e+001
425296.875 -2.749864e+001 1.343667e+002 -2.120652e+001 -1.797356e+002 -6.775806e+002 8.999393e+001 -6.808807e+002 8.999111e+001
429937.5 -2.745619e+001 1.346616e+002 -2.134003e+001 -1.790851e+002 -6.775806e+002 8.999393e+001 -6.808807e+002 8.999111e+001
434578.125 -2.755188e+001 1.346091e+002 -2.133001e+001 -1.799680e+002 -6.775806e+002 8.999393e+001 -6.808807e+002 8.999111e+001
439218.75 -2.759908e+001 1.334008e+002 -2.126940e+001 -1.796517e+002 -6.775806e+002 8.999393e+001 -6.808807e+002 8.999111e+001
443859.375 -2.770626e+001 1.341187e+002 -2.135320e+001 -1.787323e+002 -6.775806e+002 8.999393e+001 -6.808807e+002 8.999111e+001
448500 -2.780650e+001 1.344602e+002 -2.126903e+001 1.797198e+002 -6.775806e+002 8.999393e+001 -6.808807e+002 8.999111e+001
453140.625 -2.777993e+001 1.347124e+002 -2.126217e+001 -1.798499e+002 -6.775806e+002 8.999393e+001 -6.808807e+002 8.999111e+001
457781.25 -2.777296e+001 1.334744e+002 -2.135401e+001 -1.797337e+002 -6.775806e+002 8.999393e+001 -6.808807e+002 8.999111e+001
462421.875 -2.792206e+001 1.340183e+002 -2.129582e+001 1.799715e+002 -6.775806e+002 8.999393e+001 -6.808807e+002 8.999111e+001
467062.5 -2.798819e+001 1.334719e+002 -2.131294e+001 -1.797081e+002 -6.775806e+002 8.999393e+001 -6.808807e+002 8.999111e+001
471703.125 -2.804041e+001 1.328896e+002 -2.135577e+001 1.799418e+002 -6.775806e+002 8.999393e+001 -6.808807e+002 8.999111e+001
476343.75 -2.817724e+001 1.339844e+002 -2.136792e+001 -1.799719e+002 -6.775806e+002 8.999393e+001 -6.808807e+002 8.999111e+001
480984.375 -2.809814e+001 1.329152e+002 -2.132364e+001 -1.798148e+002 -6.775806e+002 8.999393e+001 -6.808807e+002 8.999111e+001
485625 -2.809706e+001 1.331377e+002 -2.134901e+001 -1.796128e+002 -6.775806e+002 8.999393e+001 -6.808807e+002 8.999111e+001
490265.625 -2.808609e+001 1.333223e+002 -2.132831e+001 -1.797928e+002 -6.775806e+002 8.999393e+001 -6.808807e+002 8.999111e+001
494906.25 -2.834658e+001 1.340664e+002 -2.137607e+001 -1.798714e+002 -6.775806e+002 8.999393e+001 -6.808807e+002 8.999111e+001
499546.875 -2.831040e+001 1.326725e+002 -2.134452e+001 1.798089e+002 -6.775806e+002 8.999393e+001 -6.808807e+002 8.999111e+001
504187.5 -2.823483e+001 1.330995e+002 -2.132592e+001 1.796569e+002 -6.775806e+002 8.999393e+001 -6.808807e+002 8.999111e+001
508828.125 -2.851293e+001 1.337466e+002 -2.138092e+001 1.795905e+002 -6.775806e+002 8.999393e+001 -6.808807e+002 8.999111e+001
513468.75 -2.833673e+001 1.324944e+002 -2.131882e+001 1.798505e+002 -6.775806e+002 8.999393e+001 -6.808807e+002 8.999111e+001
518109.375 -2.835039e+001 1.328204e+002 -2.137478e+001 1.799420e+002 -6.775806e+002 8.999393e+001 -6.808807e+002 8.999111e+001
522750 -2.868427e+001 1.323807e+002 -2.135706e+001 -1.799586e+002 -6.775806e+002 8.999393e+001 -6.808807e+002 8.999111e+001
527390.625 -2.876787e+001 1.325798e+002 -2.137509e+001 1.795758e+002 -6.775806e+002 8.999393e+001 -6.808807e+002 8.999111e+001
532031.25 -2.868120e+001 1.329799e+002 -2.131397e+001 1.798731e+002 -6.775806e+002 8.999393e+001 -6.808807e+002 8.999111e+001
536671.875 -2.879983e+001 1.331383e+002 -2.135695e+001 1.796579e+002 -6.775806e+002 8.999393e+001 -6.808807e+002 8.999111e+001
541312.5 -2.897434e+001 1.335255e+002 -2.136318e+001 1.798316e+002 -6.775806e+002 8.999393e+001 -6.808807e+002 8.999111e+001
545953.125 -2.898935e+001 1.331135e+002 -2.137752e+001 -1.796876e+002 -6.775806e+002 8.999393e+001 -6.808807e+002 8.999111e+001
550593.75 -2.890755e+001 1.322861e+002 -2.133782e+001 1.793825e+002 -6.775806e+002 8.999393e+001 -6.808807e+002 8.999111e+001
555234.375 -2.918145e+001 1.326757e+002 -2.130110e+001 -1.797632e+002 -6.775806e+002 8.999393e+001 -6.808807e+002 8.999111e+001
559875 -2.897840e+001 1.327908e+002 -2.137528e+001 1.799598e+002 -6.775806e+002 8.999393e+001 -6.808807e+002 8.999111e+001
564515.625 -2.910239e+001 1.331152e+002 -2.130234e+001 1.797753e+002 -6.775806e+002 8.999393e+001 -6.808807e+002 8.999111e+001
569156.25 -2.914555e+001 1.325406e+002 -2.134717e+001 1.798470e+002 -6.775806e+002 8.999393e+001 -6.808807e+002 8.999111e+001
573796.875 -2.924791e+001 1.350462e+002 -2.133341e+001 1.797999e+002 -6.775806e+002 8.999393e+001 -6.808807e+002 8.999111e+001
578437.5 -2.944768e+001 1.335442e+002 -2.139014e+001 1.798866e+002 -6.775806e+002 8.999393e+001 -6.808807e+002 8.999111e+001
583078.125 -2.928670e+001 1.341887e+002 -2.137281e+001 -1.798806e+002 -6.775806e+002 8.999393e+001 -6.808807e+002 8.999111e+001
587718.75 -2.948270e+001 1.343628e+002 -2.131927e+001 -1.799609e+002 -6.775806e+002 8.999393e+001 -6.808807e+002 8.999111e+001
592359.375 -2.953022e+001 1.337098e+002 -2.134908e+001 -1.799735e+002 -6.775806e+002 8.999393e+001 -6.808807e+002 8.999111e+001
597000 -2.961475e+001 1.346990e+002 -2.131972e+001 1.796917e+002 -6.775806e+002 8.999393e+001 -6.808807e+002 8.999111e+001
601640.625 -2.964612e+001 1.346440e+002 -2.133836e+001 -1.796020e+002 -6.775806e+002 8.999393e+001 -6.808807e+002 8.999111e+001
606281.25 -2.969691e+001 1.351972e+002 -2.131559e+001 1.796474e+002 -6.775806e+002 8.999393e+001 -6.808807e+002 8.999111e+001
610921.875 -2.958743e+001 1.343475e+002 -2.128082e+001 -1.799240e+002 -6.775806e+002 8.999393e+001 -6.808807e+002 8.999111e+001
615562.5 -2.965158e+001 1.354127e+002 -2.124908e+001 1.798145e+002 -6.775806e+002 8.999393e+001 -6.808807e+002 8.999111e+001
620203.125 -2.973862e+001 1.360292e+002 -2.127191e+001 -1.799618e+002 -6.775806e+002 8.999393e+001 -6.808807e+002 8.999111e+001
624843.75 -2.974124e+001 1.359690e+002 -2.120959e+001 1.799766e+002 -6.775806e+002 8.999393e+001 -6.808807e+002 8.999111e+001
629484.375 -2.979381e+001 1.369738e+002 -2.124095e+001 1.796066e+002 -6.775806e+002 8.999393e+001 -6.808807e+002 8.999111e+001
634125 -2.970605e+001 1.363917e+002 -2.125157e+001 1.795074e+002 -6.775806e+002 8.999393e+001 -6.808807e+002 8.999111e+001
638765.625 -3.004772e+001 1.374137e+002 -2.124871e+001 1.792775e+002 -6.775806e+002 8.999393e+001 -6.808807e+002 8.999111e+001
643406.25 -2.993138e+001 1.370398e+002 -2.128981e+001 1.794573e+002 -6.775806e+002 8.999393e+001 -6.808807e+002 8.999111e+001
648046.875 -2.990860e+001 1.381056e+002 -2.124302e+001 1.791090e+002 -6.775806e+002 8.999393e+001 -6.808807e+002 8.999111e+001
652687.5 -2.987866e+001 1.372079e+002 -2.125702e+001 1.790982e+002 -6.775806e+002 8.999393e+001 -6.808807e+002 8.999111e+001
657328.125 -3.001127e+001 1.378844e+002 -2.126556e+001 1.788738e+002 -6.775806e+002 8.999393e+001 -6.808807e+002 8.999111e+001
661968.75 -3.011510e+001 1.371526e+002 -2.128471e+001 1.789953e+002 -6.775806e+002 8.999393e+001 -6.808807e+002 8.999111e+001
666609.375 -3.003988e+001 1.385343e+002 -2.130579e+001 1.786171e+002 -6.775806e+002 8.999393e+001 -6.808807e+002 8.999111e+001
671250 -3.005189e+001 1.382917e+002 -2.127195e+001 1.786234e+002 -6.775806e+002 8.999393e+001 -6.808807e+002 8.999111e+001
675890.625 -3.011463e+001 1.385558e+002 -2.129438e+001 1.789812e+002 -6.775806e+002 8.999393e+001 -6.808807e+002 8.999111e+001
680531.25 -3.002889e+001 1.392894e+002 -2.131199e+001 1.785756e+002 -6.775806e+002 8.999393e+001 -6.808807e+002 8.999111e+001
685171.875 -3.019541e+001 1.391765e+002 -2.126556e+001 1.791768e+002 -6.775806e+002 8.999393e+001 -6.808807e+002 8.999111e+001
689812.5 -3.007888e+001 1.387691e+002 -2.132953e+001 1.791839e+002 -6.775806e+002 8.999393e+001 -6.808807e+002 8.999111e+001
694453.125 -3.026705e+001 1.386618e+002 -2.122225e+001 1.789886e+002 -6.775806e+002 8.999393e+001 -6.808807e+002 8.999111e+001
699093.75 -3.014240e+001 1.386141e+002 -2.132290e+001 1.790020e+002 -6.775806e+002 8.999393e+001 -6.808807e+002 8.999111e+001
703734.375 -3.036047e+001 1.388850e+002 -2.134539e+001 1.791898e+002 -6.775806e+002 8.999393e+001 -6.808807e+002 8.999111e+001
708375 -3.021414e+001 1.391628e+002 -2.133752e+001 1.787459e+002 -6.775806e+002 8.999393e+001 -6.808807e+002 8.999111e+001
713015.625 -3.039455e+001 1.395092e+002 -2.132500e+001 1.786642e+002 -6.775806e+002 8.999393e+001 -6.808807e+002 8.999111e+001
717656.25 -3.045465e+001 1.385618e+002 -2.131252e+001 1.788397e+002 -6.775806e+002 8.999393e+001 -6.808807e+002 8.999111e+001
722296.875 -3.045324e+001 1.383061e+002 -2.131649e+001 1.788627e+002 -6.775806e+002 8.999393e+001 -6.808807e+002 8.999111e+001
726937.5 -3.044791e+001 1.384859e+002 -2.141435e+001 1.786196e+002 -6.775806e+002 8.999393e+001 -6.808807e+002 8.999111e+001
731578.125 -3.044221e+001 1.382975e+002 -2.139387e+001 1.787279e+002 -6.775806e+002 8.999393e+001 -6.808807e+002 8.999111e+001
736218.75 -3.046370e+001 1.387547e+002 -2.134192e+001 1.787294e+002 -6.775806e+002 8.999393e+001 -6.808807e+002 8.999111e+001
740859.375 -3.054292e+001 1.392825e+002 -2.128758e+001 1.789371e+002 -6.775806e+002 8.999393e+001 -6.808807e+002 8.999111e+001
745500 -3.055303e+001 1.395177e+002 -2.133335e+001 1.787744e+002 -6.775806e+002 8.999393e+001 -6.808807e+002 8.999111e+001
750140.625 -3.059815e+001 1.410045e+002 -2.135921e+001 1.787856e+002 -6.775806e+002 8.999393e+001 -6.808807e+002 8.999111e+001
754781.25 -3.067609e+001 1.398320e+002 -2.129746e+001 1.787825e+002 -6.775806e+002 8.999393e+001 -6.808807e+002 8.999111e+001
759421.875 -3.077098e+001 1.395633e+002 -2.132942e+001 1.787448e+002 -6.775806e+002 8.999393e+001 -6.808807e+002 8.999111e+001
764062.5 -3.061164e+001 1.393892e+002 -2.138392e+001 1.789007e+002 -6.775806e+002 8.999393e+001 -6.808807e+002 8.999111e+001
768703.125 -3.088472e+001 1.405235e+002 -2.130923e+001 1.789898e+002 -6.775806e+002 8.999393e+001 -6.808807e+002 8.999111e+001
773343.75 -3.078875e+001 1.396283e+002 -2.133826e+001 1.787518e+002 -6.775806e+002 8.999393e+001 -6.808807e+002 8.999111e+001
777984.375 -3.091786e+001 1.413856e+002 -2.129721e+001 1.789729e+002 -6.775806e+002 8.999393e+001 -6.808807e+002 8.999111e+001
782625 -3.090000e+001 1.412971e+002 -2.136150e+001 1.789556e+002 -6.775806e+002 8.999393e+001 -6.808807e+002 8.999111e+001
787265.625 -3.096530e+001 1.401877e+002 -2.129886e+001 1.786293e+002 -6.775806e+002 8.999393e+001 -6.808807e+002 8.999111e+001
791906.25 -3.112282e+001 1.402149e+002 -2.135591e+001 1.792801e+002 -6.775806e+002 8.999393e+001 -6.808807e+002 8.999111e+001
796546.875 -3.122060e+001 1.407558e+002 -2.139480e+001 1.792438e+002 -6.775806e+002 8.999393e+001 -6.808807e+002 8.999111e+001
801187.5 -3.087624e+001 1.399949e+002 -2.138740e+001 1.785977e+002 -6.775806e+002 8.999393e+001 -6.808807e+002 8.999111e+001
805828.125 -3.105527e+001 1.413793e+002 -2.130880e+001 1.791186e+002 -6.775806e+002 8.999393e+001 -6.808807e+002 8.999111e+001
810468.75 -3.101562e+001 1.389973e+002 -2.135813e+001 1.782661e+002 -6.775806e+002 8.999393e+001 -6.808807e+002 8.999111e+001
815109.375 -3.102592e+001 1.405309e+002 -2.133104e+001 1.784290e+002 -6.775806e+002 8.999393e+001 -6.808807e+002 8.999111e+001
819750 -3.127625e+001 1.416717e+002 -2.134008e+001 1.786023e+002 -6.775806e+002 8.999393e+001 -6.808807e+002 8.999111e+001
824390.625 -3.124247e+001 1.418263e+002 -2.131690e+001 1.784109e+002 -6.775806e+002 8.999393e+001 -6.808807e+002 8.999111e+001
829031.25 -3.108312e+001 1.405229e+002 -2.137153e+001 1.786155e+002 -6.775806e+002 8.999393e+001 -6.808807e+002 8.999111e+001
833671.875 -3.133367e+001 1.410339e+002 -2.134093e+001 1.788846e+002 -6.775806e+002 8.999393e+001 -6.808807e+002 8.999111e+001
838312.5 -3.134411e+001 1.417547e+002 -2.132571e+001 1.786929e+002 -6.775806e+002 8.999393e+001 -6.808807e+002 8.999111e+001
842953.125 -3.133611e+001 1.404437e+002 -2.134197e+001 1.780499e+002 -6.775806e+002 8.999393e+001 -6.808807e+002 8.999111e+001
847593.75 -3.144504e+001 1.413999e+002 -2.136526e+001 1.788330e+002 -6.775806e+002 8.999393e+001 -6.808807e+002 8.999111e+001
852234.375 -3.139690e+001 1.413242e+002 -2.130416e+001 1.788257e+002 -6.775806e+002 8.999393e+001 -6.808807e+002 8.999111e+001
856875 -3.163496e+001 1.441118e+002 -2.132520e+001 1.785983e+002 -6.775806e+002 8.999393e+001 -6.808807e+002 8.999111e+001
861515.625 -3.127839e+001 1.414901e+002 -2.131415e+001 1.786212e+002 -6.775806e+002 8.999393e+001 -6.808807e+002 8.999111e+001
866156.25 -3.160710e+001 1.435833e+002 -2.130683e+001 1.784928e+002 -6.775806e+002 8.999393e+001 -6.808807e+002 8.999111e+001
870796.875 -3.166828e+001 1.412509e+002 -2.136231e+001 1.786113e+002 -6.775806e+002 8.999393e+001 -6.808807e+002 8.999111e+001
875437.5 -3.172047e+001 1.430176e+002 -2.130946e+001 1.786328e+002 -6.775806e+002 8.999393e+001 -6.808807e+002 8.999111e+001
880078.125 -3.165626e+001 1.418625e+002 -2.131500e+001 1.785537e+002 -6.775806e+002 8.999393e+001 -6.808807e+002 8.999111e+001
884718.75 -3.156144e+001 1.411139e+002 -2.136177e+001 1.787198e+002 -6.775806e+002 8.999393e+001 -6.808807e+002 8.999111e+001
889359.375 -3.166335e+001 1.432832e+002 -2.132461e+001 1.785703e+002 -6.775806e+002 8.999393e+001 -6.808807e+002 8.999111e+001
894000 -3.193439e+001 1.437450e+002 -2.131269e+001 1.790188e+002 -6.775806e+002 8.999393e+001 -6.808807e+002 8.999111e+001
898640.625 -3.171379e+001 1.426629e+002 -2.133413e+001 1.785375e+002 -6.775806e+002 8.999393e+001 -6.808807e+002 8.999111e+001
903281.25 -3.180786e+001 1.428666e+002 -2.131496e+001 1.789747e+002 -6.775806e+002 8.999393e+001 -6.808807e+002 8.999111e+001
907921.875 -3.189228e+001 1.435750e+002 -2.136563e+001 1.778778e+002 -6.775806e+002 8.999393e+001 -6.808807e+002 8.999111e+001
912562.5 -3.171579e+001 1.446409e+002 -2.126494e+001 1.785813e+002 -6.775806e+002 8.999393e+001 -6.808807e+002 8.999111e+001
917203.125 -3.172836e+001 1.454748e+002 -2.130887e+001 1.785635e+002 -6.775806e+002 8.999393e+001 -6.808807e+002 8.999111e+001
921843.75 -3.162066e+001 1.451027e+002 -2.128688e+001 1.786260e+002 -6.775806e+002 8.999393e+001 -6.808807e+002 8.999111e+001
926484.375 -3.177030e+001 1.437217e+002 -2.130080e+001 1.783975e+002 -6.775806e+002 8.999393e+001 -6.808807e+002 8.999111e+001
931125 -3.181647e+001 1.450324e+002 -2.123059e+001 1.786322e+002 -6.775806e+002 8.999393e+001 -6.808807e+002 8.999111e+001
935765.625 -3.183959e+001 1.441441e+002 -2.131897e+001 1.787561e+002 -6.775806e+002 8.999393e+001 -6.808807e+002 8.999111e+001
940406.25 -3.205911e+001 1.456684e+002 -2.124749e+001 1.783120e+002 -6.775806e+002 8.999393e+001 -6.808807e+002 8.999111e+001
945046.875 -3.192959e+001 1.453955e+002 -2.131817e+001 1.781833e+002 -6.775806e+002 8.999393e+001 -6.808807e+002 8.999111e+001
949687.5 -3.205364e+001 1.468998e+002 -2.133050e+001 1.786143e+002 -6.775806e+002 8.999393e+001 -6.808807e+002 8.999111e+001
954328.125 -3.174627e+001 1.464236e+002 -2.126726e+001 1.783539e+002 -6.775806e+002 8.999393e+001 -6.808807e+002 8.999111e+001
958968.75 -3.190383e+001 1.459831e+002 -2.128318e+001 1.785280e+002 -6.775806e+002 8.999393e+001 -6.808807e+002 8.999111e+001
963609.375 -3.203803e+001 1.463014e+002 -2.131650e+001 1.781067e+002 -6.775806e+002 8.999393e+001 -6.808807e+002 8.999111e+001
968250 -3.198044e+001 1.453366e+002 -2.132934e+001 1.782386e+002 -6.775806e+002 8.999393e+001 -6.808807e+002 8.999111e+001
972890.625 -3.200235e+001 1.447148e+002 -2.131057e+001 1.781746e+002 -6.775806e+002 8.999393e+001 -6.808807e+002 8.999111e+001
977531.25 -3.207929e+001 1.451581e+002 -2.132309e+001 1.783467e+002 -6.775806e+002 8.999393e+001 -6.808807e+002 8.999111e+001
982171.875 -3.207356e+001 1.471992e+002 -2.130611e+001 1.783085e+002 -6.775806e+002 8.999393e+001 -6.808807e+002 8.999111e+001
986812.5 -3.214168e+001 1.461861e+002 -2.134211e+001 1.783978e+002 -6.775806e+002 8.999393e+001 -6.808807e+002 8.999111e+001
991453.125 -3.207850e+001 1.466105e+002 -2.129316e+001 1.783465e+002 -6.775806e+002 8.999393e+001 -6.808807e+002 8.999111e+001
996093.75 -3.215109e+001 1.465059e+002 -2.122884e+001 1.784256e+002 -6.775806e+002 8.999393e+001 -6.808807e+002 8.999111e+001
1000734.375 -3.234920e+001 1.469035e+002 -2.130379e+001 1.784022e+002 -6.775806e+002 8.999393e+001 -6.808807e+002 8.999111e+001
1005375 -3.228838e+001 1.475544e+002 -2.127204e+001 1.781909e+002 -6.775806e+002 8.999393e+001 -6.808807e+002 8.999111e+001
1010015.625 -3.231578e+001 1.471760e+002 -2.122566e+001 1.778790e+002 -6.775806e+002 8.999393e+001 -6.808807e+002 8.999111e+001
1014656.25 -3.216145e+001 1.493055e+002 -2.129543e+001 1.782429e+002 -6.775806e+002 8.999393e+001 -6.808807e+002 8.999111e+001
1019296.875 -3.212510e+001 1.460005e+002 -2.133701e+001 1.780679e+002 -6.775806e+002 8.999393e+001 -6.808807e+002 8.999111e+001
