!Agilent Technologies,N5230A,MY45001891,A.06.04.21
!Agilent N5230A: A.06.04.21
!Date: Friday, January 01, 1988 06:45:04
!Correction: S11(Off) S21(Off) S12(Off) S22(Off) 
!S2P File: Measurements: S11, S21, S12, S22:
# Hz S  dB   R 50
300000 -2.627384e+001 1.351107e+002 -1.009522e+001 -4.468588e+000 -6.797332e+002 8.999221e+001 -6.824628e+002 8.998933e+001
307765.625 -2.643820e+001 1.387380e+002 -1.003514e+001 -4.467423e+000 -6.797332e+002 8.999221e+001 -6.824628e+002 8.998933e+001
315531.25 -2.682744e+001 1.371696e+002 -9.984597e+000 -4.711178e+000 -6.797332e+002 8.999221e+001 -6.824628e+002 8.998933e+001
323296.875 -2.706270e+001 1.385310e+002 -1.008541e+001 -5.004910e+000 -6.797332e+002 8.999221e+001 -6.824628e+002 8.998933e+001
331062.5 -2.666910e+001 1.365386e+002 -1.002243e+001 -5.595105e+000 -6.797332e+002 8.999221e+001 -6.824628e+002 8.998933e+001
338828.125 -2.707900e+001 1.391373e+002 -1.003682e+001 -4.495525e+000 -6.797332e+002 8.999221e+001 -6.824628e+002 8.998933e+001
346593.75 -2.673088e+001 1.398449e+002 -9.954577e+000 -5.657333e+000 -6.797332e+002 8.999221e+001 -6.824628e+002 8.998933e+001
354359.375 -2.717597e+001 1.374062e+002 -9.995571e+000 -6.090421e+000 -6.797332e+002 8.999221e+001 -6.824628e+002 8.998933e+001
362125 -2.713981e+001 1.380821e+002 -9.934381e+000 -5.742067e+000 -6.797332e+002 8.999221e+001 -6.824628e+002 8.998933e+001
369890.625 -2.743658e+001 1.372037e+002 -9.972065e+000 -6.398988e+000 -6.797332e+002 8.999221e+001 -6.824628e+002 8.998933e+001
377656.25 -2.725884e+001 1.396808e+002 -9.870420e+000 -6.722675e+000 -6.797332e+002 8.999221e+001 -6.824628e+002 8.998933e+001
385421.875 -2.759234e+001 1.349840e+002 -1.004264e+001 -6.278476e+000 -6.797332e+002 8.999221e+001 -6.824628e+002 8.998933e+001
393187.5 -2.766421e+001 1.376320e+002 -1.002952e+001 -7.346331e+000 -6.797332e+002 8.999221e+001 -6.824628e+002 8.998933e+001
400953.125 -2.752585e+001 1.362810e+002 -9.944163e+000 -7.465096e+000 -6.797332e+002 8.999221e+001 -6.824628e+002 8.998933e+001
408718.75 -2.735448e+001 1.360765e+002 -1.013523e+001 -8.143685e+000 -6.797332e+002 8.999221e+001 -6.824628e+002 8.998933e+001
416484.375 -2.792908e+001 1.364211e+002 -1.000847e+001 -8.221220e+000 -6.797332e+002 8.999221e+001 -6.824628e+002 8.998933e+001
424250 -2.791071e+001 1.379835e+002 -1.001441e+001 -8.240931e+000 -6.797332e+002 8.999221e+001 -6.824628e+002 8.998933e+001
432015.625 -2.791121e+001 1.364662e+002 -9.952023e+000 -8.515658e+000 -6.797332e+002 8.999221e+001 -6.824628e+002 8.998933e+001
439781.25 -2.803500e+001 1.361633e+002 -9.921886e+000 -8.450652e+000 -6.797332e+002 8.999221e+001 -6.824628e+002 8.998933e+001
447546.875 -2.818437e+001 1.382629e+002 -9.934929e+000 -9.508520e+000 -6.797332e+002 8.999221e+001 -6.824628e+002 8.998933e+001
455312.5 -2.824695e+001 1.353686e+002 -1.001754e+001 -9.052324e+000 -6.797332e+002 8.999221e+001 -6.824628e+002 8.998933e+001
463078.125 -2.835253e+001 1.350648e+002 -1.005053e+001 -9.380285e+000 -6.797332e+002 8.999221e+001 -6.824628e+002 8.998933e+001
470843.75 -2.864654e+001 1.361131e+002 -9.959909e+000 -9.560277e+000 -6.797332e+002 8.999221e+001 -6.824628e+002 8.998933e+001
478609.375 -2.831734e+001 1.362371e+002 -1.003389e+001 -9.841873e+000 -6.797332e+002 8.999221e+001 -6.824628e+002 8.998933e+001
486375 -2.847503e+001 1.380589e+002 -9.982195e+000 -1.008492e+001 -6.797332e+002 8.999221e+001 -6.824628e+002 8.998933e+001
494140.625 -2.914451e+001 1.360900e+002 -9.975421e+000 -1.017707e+001 -6.797332e+002 8.999221e+001 -6.824628e+002 8.998933e+001
501906.25 -2.884576e+001 1.361204e+002 -9.987518e+000 -1.067490e+001 -6.797332e+002 8.999221e+001 -6.824628e+002 8.998933e+001
509671.875 -2.875505e+001 1.374636e+002 -9.977057e+000 -1.078479e+001 -6.797332e+002 8.999221e+001 -6.824628e+002 8.998933e+001
517437.5 -2.922504e+001 1.359720e+002 -9.936531e+000 -1.108141e+001 -6.797332e+002 8.999221e+001 -6.824628e+002 8.998933e+001
525203.125 -2.901987e+001 1.349684e+002 -1.006277e+001 -1.112503e+001 -6.797332e+002 8.999221e+001 -6.824628e+002 8.998933e+001
532968.75 -2.902147e+001 1.347790e+002 -9.955468e+000 -1.145803e+001 -6.797332e+002 8.999221e+001 -6.824628e+002 8.998933e+001
540734.375 -2.950019e+001 1.397353e+002 -9.992017e+000 -1.162601e+001 -6.797332e+002 8.999221e+001 -6.824628e+002 8.998933e+001
548500 -2.976159e+001 1.352613e+002 -1.000518e+001 -1.160454e+001 -6.797332e+002 8.999221e+001 -6.824628e+002 8.998933e+001
556265.625 -2.921690e+001 1.372660e+002 -1.001306e+001 -1.126634e+001 -6.797332e+002 8.999221e+001 -6.824628e+002 8.998933e+001
564031.25 -2.962466e+001 1.372295e+002 -1.003320e+001 -1.171333e+001 -6.797332e+002 8.999221e+001 -6.824628e+002 8.998933e+001
571796.875 -2.997077e+001 1.375154e+002 -9.955818e+000 -1.205604e+001 -6.797332e+002 8.999221e+001 -6.824628e+002 8.998933e+001
579562.5 -2.994293e+001 1.341342e+002 -1.004061e+001 -1.219222e+001 -6.797332e+002 8.999221e+001 -6.824628e+002 8.998933e+001
587328.125 -2.984980e+001 1.352531e+002 -1.002774e+001 -1.226638e+001 -6.797332e+002 8.999221e+001 -6.824628e+002 8.998933e+001
595093.75 -2.963632e+001 1.366833e+002 -9.945441e+000 -1.235196e+001 -6.797332e+002 8.999221e+001 -6.824628e+002 8.998933e+001
602859.375 -2.983282e+001 1.388235e+002 -9.930563e+000 -1.272151e+001 -6.797332e+002 8.999221e+001 -6.824628e+002 8.998933e+001
610625 -3.058996e+001 1.326097e+002 -9.944355e+000 -1.287829e+001 -6.797332e+002 8.999221e+001 -6.824628e+002 8.998933e+001
618390.625 -3.044436e+001 1.384553e+002 -9.921254e+000 -1.355002e+001 -6.797332e+002 8.999221e+001 -6.824628e+002 8.998933e+001
626156.25 -2.996137e+001 1.402662e+002 -9.911397e+000 -1.362534e+001 -6.797332e+002 8.999221e+001 -6.824628e+002 8.998933e+001
633921.875 -2.976568e+001 1.387154e+002 -9.880271e+000 -1.380508e+001 -6.797332e+002 8.999221e+001 -6.824628e+002 8.998933e+001
641687.5 -3.004488e+001 1.408750e+002 -9.884010e+000 -1.397886e+001 -6.797332e+002 8.999221e+001 -6.824628e+002 8.998933e+001
649453.125 -2.973868e+001 1.412838e+002 -9.926785e+000 -1.441603e+001 -6.797332e+002 8.999221e+001 -6.824628e+002 8.998933e+001
657218.75 -3.043579e+001 1.379359e+002 -9.942690e+000 -1.448030e+001 -6.797332e+002 8.999221e+001 -6.824628e+002 8.998933e+001
664984.375 -3.027774e+001 1.405118e+002 -9.933244e+000 -1.472873e+001 -6.797332e+002 8.999221e+001 -6.824628e+002 8.998933e+001
672750 -3.073991e+001 1.403209e+002 -9.939801e+000 -1.506472e+001 -6.797332e+002 8.999221e+001 -6.824628e+002 8.998933e+001
680515.625 -3.106894e+001 1.424238e+002 -9.942916e+000 -1.540986e+001 -6.797332e+002 8.999221e+001 -6.824628e+002 8.998933e+001
688281.25 -3.079557e+001 1.424408e+002 -9.966176e+000 -1.557223e+001 -6.797332e+002 8.999221e+001 -6.824628e+002 8.998933e+001
696046.875 -3.024121e+001 1.429145e+002 -9.930933e+000 -1.581052e+001 -6.797332e+002 8.999221e+001 -6.824628e+002 8.998933e+001
703812.5 -3.073955e+001 1.398207e+002 -1.002303e+001 -1.583568e+001 -6.797332e+002 8.999221e+001 -6.824628e+002 8.998933e+001
711578.125 -3.059293e+001 1.388832e+002 -9.949790e+000 -1.590816e+001 -6.797332e+002 8.999221e+001 -6.824628e+002 8.998933e+001
719343.75 -3.096334e+001 1.378209e+002 -9.894681e+000 -1.599344e+001 -6.797332e+002 8.999221e+001 -6.824628e+002 8.998933e+001
727109.375 -3.080591e+001 1.396876e+002 -9.977260e+000 -1.629464e+001 -6.797332e+002 8.999221e+001 -6.824628e+002 8.998933e+001
734875 -3.095217e+001 1.400921e+002 -9.959105e+000 -1.662115e+001 -6.797332e+002 8.999221e+001 -6.824628e+002 8.998933e+001
742640.625 -3.083708e+001 1.401272e+002 -1.000616e+001 -1.651027e+001 -6.797332e+002 8.999221e+001 -6.824628e+002 8.998933e+001
750406.25 -3.101088e+001 1.442921e+002 -9.970504e+000 -1.705657e+001 -6.797332e+002 8.999221e+001 -6.824628e+002 8.998933e+001
758171.875 -3.136303e+001 1.399000e+002 -9.994367e+000 -1.703296e+001 -6.797332e+002 8.999221e+001 -6.824628e+002 8.998933e+001
765937.5 -3.111170e+001 1.429140e+002 -9.985947e+000 -1.711023e+001 -6.797332e+002 8.999221e+001 -6.824628e+002 8.998933e+001
773703.125 -3.116047e+001 1.400144e+002 -9.923606e+000 -1.775447e+001 -6.797332e+002 8.999221e+001 -6.824628e+002 8.998933e+001
781468.75 -3.164865e+001 1.457149e+002 -9.941114e+000 -1.749586e+001 -6.797332e+002 8.999221e+001 -6.824628e+002 8.998933e+001
789234.375 -3.101833e+001 1.421046e+002 -9.984684e+000 -1.751981e+001 -6.797332e+002 8.999221e+001 -6.824628e+002 8.998933e+001
797000 -3.144977e+001 1.390293e+002 -9.943231e+000 -1.766326e+001 -6.797332e+002 8.999221e+001 -6.824628e+002 8.998933e+001
804765.625 -3.169670e+001 1.396505e+002 -9.979241e+000 -1.762976e+001 -6.797332e+002 8.999221e+001 -6.824628e+002 8.998933e+001
812531.25 -3.152482e+001 1.423021e+002 -9.973122e+000 -1.831913e+001 -6.797332e+002 8.999221e+001 -6.824628e+002 8.998933e+001
820296.875 -3.092704e+001 1.456423e+002 -9.969537e+000 -1.863623e+001 -6.797332e+002 8.999221e+001 -6.824628e+002 8.998933e+001
828062.5 -3.161511e+001 1.452820e+002 -9.981138e+000 -1.883624e+001 -6.797332e+002 8.999221e+001 -6.824628e+002 8.998933e+001
835828.125 -3.167304e+001 1.424944e+002 -1.001012e+001 -1.911451e+001 -6.797332e+002 8.999221e+001 -6.824628e+002 8.998933e+001
843593.75 -3.203559e+001 1.441654e+002 -9.953632e+000 -1.956073e+001 -6.797332e+002 8.999221e+001 -6.824628e+002 8.998933e+001
851359.375 -3.203896e+001 1.445948e+002 -1.001038e+001 -1.947648e+001 -6.797332e+002 8.999221e+001 -6.824628e+002 8.998933e+001
859125 -3.198112e+001 1.457642e+002 -9.942245e+000 -1.920133e+001 -6.797332e+002 8.999221e+001 -6.824628e+002 8.998933e+001
866890.625 -3.217551e+001 1.447701e+002 -9.924104e+000 -1.986089e+001 -6.797332e+002 8.999221e+001 -6.824628e+002 8.998933e+001
874656.25 -3.172863e+001 1.476073e+002 -9.941674e+000 -2.004823e+001 -6.797332e+002 8.999221e+001 -6.824628e+002 8.998933e+001
882421.875 -3.192402e+001 1.451520e+002 -9.945378e+000 -2.017246e+001 -6.797332e+002 8.999221e+001 -6.824628e+002 8.998933e+001
890187.5 -3.180107e+001 1.476507e+002 -9.956433e+000 -2.043481e+001 -6.797332e+002 8.999221e+001 -6.824628e+002 8.998933e+001
897953.125 -3.183053e+001 1.416367e+002 -9.962622e+000 -2.004661e+001 -6.797332e+002 8.999221e+001 -6.824628e+002 8.998933e+001
905718.75 -3.172953e+001 1.425818e+002 -9.957341e+000 -2.065456e+001 -6.797332e+002 8.999221e+001 -6.824628e+002 8.998933e+001
913484.375 -3.234170e+001 1.460286e+002 -9.950090e+000 -2.087171e+001 -6.797332e+002 8.999221e+001 -6.824628e+002 8.998933e+001
921250 -3.185594e+001 1.467709e+002 -9.943646e+000 -2.117869e+001 -6.797332e+002 8.999221e+001 -6.824628e+002 8.998933e+001
929015.625 -3.223768e+001 1.497973e+002 -9.895232e+000 -2.111027e+001 -6.797332e+002 8.999221e+001 -6.824628e+002 8.998933e+001
936781.25 -3.173778e+001 1.478952e+002 -9.908821e+000 -2.115171e+001 -6.797332e+002 8.999221e+001 -6.824628e+002 8.998933e+001
944546.875 -3.237616e+001 1.460921e+002 -9.908913e+000 -2.124483e+001 -6.797332e+002 8.999221e+001 -6.824628e+002 8.998933e+001
952312.5 -3.295976e+001 1.440564e+002 -9.934470e+000 -2.144812e+001 -6.797332e+002 8.999221e+001 -6.824628e+002 8.998933e+001
960078.125 -3.245002e+001 1.501409e+002 -9.902527e+000 -2.223358e+001 -6.797332e+002 8.999221e+001 -6.824628e+002 8.998933e+001
967843.75 -3.216988e+001 1.441095e+002 -9.865052e+000 -2.210456e+001 -6.797332e+002 8.999221e+001 -6.824628e+002 8.998933e+001
975609.375 -3.256954e+001 1.473710e+002 -9.930367e+000 -2.234356e+001 -6.797332e+002 8.999221e+001 -6.824628e+002 8.998933e+001
983375 -3.256969e+001 1.479494e+002 -9.895869e+000 -2.239241e+001 -6.797332e+002 8.999221e+001 -6.824628e+002 8.998933e+001
991140.625 -3.217939e+001 1.499262e+002 -9.917047e+000 -2.247248e+001 -6.797332e+002 8.999221e+001 -6.824628e+002 8.998933e+001
998906.25 -3.210826e+001 1.466741e+002 -9.930202e+000 -2.312286e+001 -6.797332e+002 8.999221e+001 -6.824628e+002 8.998933e+001
1006671.875 -3.224897e+001 1.531281e+002 -9.964716e+000 -2.312153e+001 -6.797332e+002 8.999221e+001 -6.824628e+002 8.998933e+001
1014437.5 -3.240395e+001 1.495663e+002 -9.896002e+000 -2.296620e+001 -6.797332e+002 8.999221e+001 -6.824628e+002 8.998933e+001
1022203.125 -3.307494e+001 1.508856e+002 -9.968526e+000 -2.348570e+001 -6.797332e+002 8.999221e+001 -6.824628e+002 8.998933e+001
1029968.75 -3.314710e+001 1.453913e+002 -9.927035e+000 -2.365951e+001 -6.797332e+002 8.999221e+001 -6.824628e+002 8.998933e+001
1037734.375 -3.298337e+001 1.514687e+002 -9.911318e+000 -2.380199e+001 -6.797332e+002 8.999221e+001 -6.824628e+002 8.998933e+001
1045500 -3.263225e+001 1.471090e+002 -9.889413e+000 -2.425785e+001 -6.797332e+002 8.999221e+001 -6.824628e+002 8.998933e+001
1053265.625 -3.259717e+001 1.486063e+002 -9.913929e+000 -2.400371e+001 -6.797332e+002 8.999221e+001 -6.824628e+002 8.998933e+001
1061031.25 -3.273957e+001 1.516173e+002 -9.933315e+000 -2.416064e+001 -6.797332e+002 8.999221e+001 -6.824628e+002 8.998933e+001
1068796.875 -3.281392e+001 1.522127e+002 -9.830635e+000 -2.454568e+001 -6.797332e+002 8.999221e+001 -6.824628e+002 8.998933e+001
1076562.5 -3.350782e+001 1.536790e+002 -9.888885e+000 -2.506279e+001 -6.797332e+002 8.999221e+001 -6.824628e+002 8.998933e+001
1084328.125 -3.240668e+001 1.519700e+002 -9.912895e+000 -2.499929e+001 -6.797332e+002 8.999221e+001 -6.824628e+002 8.998933e+001
1092093.75 -3.258055e+001 1.493784e+002 -9.933227e+000 -2.509482e+001 -6.797332e+002 8.999221e+001 -6.824628e+002 8.998933e+001
1099859.375 -3.263248e+001 1.489094e+002 -9.955384e+000 -2.515922e+001 -6.797332e+002 8.999221e+001 -6.824628e+002 8.998933e+001
1107625 -3.264732e+001 1.505395e+002 -9.886912e+000 -2.564577e+001 -6.797332e+002 8.999221e+001 -6.824628e+002 8.998933e+001
1115390.625 -3.282686e+001 1.553333e+002 -9.847505e+000 -2.564321e+001 -6.797332e+002 8.999221e+001 -6.824628e+002 8.998933e+001
1123156.25 -3.261783e+001 1.553079e+002 -9.928196e+000 -2.577247e+001 -6.797332e+002 8.999221e+001 -6.824628e+002 8.998933e+001
1130921.875 -3.322684e+001 1.523645e+002 -9.905858e+000 -2.597763e+001 -6.797332e+002 8.999221e+001 -6.824628e+002 8.998933e+001
1138687.5 -3.321605e+001 1.499535e+002 -9.894760e+000 -2.641455e+001 -6.797332e+002 8.999221e+001 -6.824628e+002 8.998933e+001
1146453.125 -3.319100e+001 1.538189e+002 -9.934636e+000 -2.651027e+001 -6.797332e+002 8.999221e+001 -6.824628e+002 8.998933e+001
1154218.75 -3.354969e+001 1.537780e+002 -9.850327e+000 -2.659186e+001 -6.797332e+002 8.999221e+001 -6.824628e+002 8.998933e+001
1161984.375 -3.253176e+001 1.527323e+002 -9.896275e+000 -2.679372e+001 -6.797332e+002 8.999221e+001 -6.824628e+002 8.998933e+001
1169750 -3.306325e+001 1.507573e+002 -9.904541e+000 -2.720603e+001 -6.797332e+002 8.999221e+001 -6.824628e+002 8.998933e+001
1177515.625 -3.315661e+001 1.535500e+002 -9.869425e+000 -2.756595e+001 -6.797332e+002 8.999221e+001 -6.824628e+002 8.998933e+001
1185281.25 -3.323716e+001 1.530552e+002 -9.853269e+000 -2.749219e+001 -6.797332e+002 8.999221e+001 -6.824628e+002 8.998933e+001
1193046.875 -3.326291e+001 1.531801e+002 -9.916498e+000 -2.760200e+001 -6.797332e+002 8.999221e+001 -6.824628e+002 8.998933e+001
1200812.5 -3.283471e+001 1.573713e+002 -9.891685e+000 -2.791304e+001 -6.797332e+002 8.999221e+001 -6.824628e+002 8.998933e+001
1208578.125 -3.272150e+001 1.566260e+002 -9.884598e+000 -2.830822e+001 -6.797332e+002 8.999221e+001 -6.824628e+002 8.998933e+001
1216343.75 -3.405317e+001 1.537049e+002 -9.882984e+000 -2.835161e+001 -6.797332e+002 8.999221e+001 -6.824628e+002 8.998933e+001
1224109.375 -3.273726e+001 1.551246e+002 -9.875880e+000 -2.834598e+001 -6.797332e+002 8.999221e+001 -6.824628e+002 8.998933e+001
1231875 -3.377618e+001 1.557430e+002 -9.937521e+000 -2.866394e+001 -6.797332e+002 8.999221e+001 -6.824628e+002 8.998933e+001
1239640.625 -3.305785e+001 1.558316e+002 -9.860372e+000 -2.919708e+001 -6.797332e+002 8.999221e+001 -6.824628e+002 8.998933e+001
1247406.25 -3.333673e+001 1.585466e+002 -9.916493e+000 -2.918435e+001 -6.797332e+002 8.999221e+001 -6.824628e+002 8.998933e+001
1255171.875 -3.299153e+001 1.580526e+002 -9.889380e+000 -2.898907e+001 -6.797332e+002 8.999221e+001 -6.824628e+002 8.998933e+001
1262937.5 -3.316281e+001 1.578312e+002 -9.905653e+000 -2.913268e+001 -6.797332e+002 8.999221e+001 -6.824628e+002 8.998933e+001
1270703.125 -3.361377e+001 1.586330e+002 -9.909278e+000 -2.962204e+001 -6.797332e+002 8.999221e+001 -6.824628e+002 8.998933e+001
1278468.75 -3.358679e+001 1.600907e+002 -9.882306e+000 -2.964592e+001 -6.797332e+002 8.999221e+001 -6.824628e+002 8.998933e+001
1286234.375 -3.324698e+001 1.570421e+002 -9.870765e+000 -3.023269e+001 -6.797332e+002 8.999221e+001 -6.824628e+002 8.998933e+001
1294000 -3.267693e+001 1.571793e+002 -9.864008e+000 -3.011584e+001 -6.797332e+002 8.999221e+001 -6.824628e+002 8.998933e+001
1301765.625 -3.366905e+001 1.540079e+002 -9.882348e+000 -3.014761e+001 -6.797332e+002 8.999221e+001 -6.824628e+002 8.998933e+001
1309531.25 -3.299970e+001 1.603402e+002 -9.817492e+000 -3.074225e+001 -6.797332e+002 8.999221e+001 -6.824628e+002 8.998933e+001
1317296.875 -3.341603e+001 1.611508e+002 -9.838346e+000 -3.078653e+001 -6.797332e+002 8.999221e+001 -6.824628e+002 8.998933e+001
1325062.5 -3.324164e+001 1.591598e+002 -9.871344e+000 -3.063181e+001 -6.797332e+002 8.999221e+001 -6.824628e+002 8.998933e+001
1332828.125 -3.332610e+001 1.559082e+002 -9.896155e+000 -3.104426e+001 -6.797332e+002 8.999221e+001 -6.824628e+002 8.998933e+001
1340593.75 -3.278568e+001 1.585151e+002 -9.906682e+000 -3.140868e+001 -6.797332e+002 8.999221e+001 -6.824628e+002 8.998933e+001
1348359.375 -3.335361e+001 1.549783e+002 -9.852188e+000 -3.168014e+001 -6.797332e+002 8.999221e+001 -6.824628e+002 8.998933e+001
1356125 -3.403037e+001 1.569793e+002 -9.882277e+000 -3.165553e+001 -6.797332e+002 8.999221e+001 -6.824628e+002 8.998933e+001
1363890.625 -3.347189e+001 1.628008e+002 -9.925069e+000 -3.211818e+001 -6.797332e+002 8.999221e+001 -6.824628e+002 8.998933e+001
1371656.25 -3.354090e+001 1.620194e+002 -9.862871e+000 -3.179977e+001 -6.797332e+002 8.999221e+001 -6.824628e+002 8.998933e+001
1379421.875 -3.282880e+001 1.591407e+002 -9.862180e+000 -3.219502e+001 -6.797332e+002 8.999221e+001 -6.824628e+002 8.998933e+001
1387187.5 -3.287580e+001 1.600739e+002 -9.895823e+000 -3.246887e+001 -6.797332e+002 8.999221e+001 -6.824628e+002 8.998933e+001
1394953.125 -3.345898e+001 1.580751e+002 -9.865425e+000 -3.265676e+001 -6.797332e+002 8.999221e+001 -6.824628e+002 8.998933e+001
1402718.75 -3.301432e+001 1.589267e+002 -9.902575e+000 -3.281394e+001 -6.797332e+002 8.999221e+001 -6.824628e+002 8.998933e+001
1410484.375 -3.396394e+001 1.601872e+002 -9.834272e+000 -3.340799e+001 -6.797332e+002 8.999221e+001 -6.824628e+002 8.998933e+001
1418250 -3.396028e+001 1.602707e+002 -9.901298e+000 -3.326397e+001 -6.797332e+002 8.999221e+001 -6.824628e+002 8.998933e+001
1426015.625 -3.367627e+001 1.608581e+002 -9.907285e+000 -3.346910e+001 -6.797332e+002 8.999221e+001 -6.824628e+002 8.998933e+001
1433781.25 -3.354940e+001 1.581169e+002 -9.837754e+000 -3.327372e+001 -6.797332e+002 8.999221e+001 -6.824628e+002 8.998933e+001
1441546.875 -3.323871e+001 1.620053e+002 -9.863471e+000 -3.396607e+001 -6.797332e+002 8.999221e+001 -6.824628e+002 8.998933e+001
1449312.5 -3.329848e+001 1.616350e+002 -9.856297e+000 -3.375836e+001 -6.797332e+002 8.999221e+001 -6.824628e+002 8.998933e+001
1457078.125 -3.333460e+001 1.593822e+002 -9.802486e+000 -3.423669e+001 -6.797332e+002 8.999221e+001 -6.824628e+002 8.998933e+001
1464843.75 -3.363971e+001 1.569978e+002 -9.887478e+000 -3.443838e+001 -6.797332e+002 8.999221e+001 -6.824628e+002 8.998933e+001
1472609.375 -3.311058e+001 1.629519e+002 -9.840200e+000 -3.459602e+001 -6.797332e+002 8.999221e+001 -6.824628e+002 8.998933e+001
1480375 -3.327054e+001 1.574106e+002 -9.893893e+000 -3.445578e+001 -6.797332e+002 8.999221e+001 -6.824628e+002 8.998933e+001
1488140.625 -3.354917e+001 1.645598e+002 -9.848287e+000 -3.484949e+001 -6.797332e+002 8.999221e+001 -6.824628e+002 8.998933e+001
1495906.25 -3.389192e+001 1.541855e+002 -9.867260e+000 -3.525374e+001 -6.797332e+002 8.999221e+001 -6.824628e+002 8.998933e+001
