;Version, 1, 0
;S11 dB20 (modelFiles=toplevel.scs:ff_lib),;S11 dB20 (modelFiles=toplevel.scs:ss_lib),;S11 dB20 (modelFiles=toplevel.scs:tt_lib)
;X, Y,;X, Y,;X, Y
;Re, Re,;Re, Re,;Re, Re
;freq, S-Param,;freq, S-Param,;freq, S-Param
;Hz, dB,;Hz, dB,;Hz, dB
1000,-21.10292411529647,1000,-21.26377837652603,1000,-42.23961891861115
60000998,-21.10292331483635,60000998,-21.26377631336979,60000998,-42.23942764378647
120000996,-21.10292091351532,120000996,-21.26377012403666,120000996,-42.23885388256651
180000994,-21.10291691133167,180000994,-21.26375980855354,180000994,-42.23789778666514
240000992,-21.10291130829135,240000992,-21.26374536694808,240000992,-42.23655960865779
300000990,-21.10290410440237,300000990,-21.26372679926283,300000990,-42.23483970186571
360000988,-21.10289529967255,360000988,-21.26370410555666,360000988,-42.23273852005812
420000986,-21.10288489411449,420000986,-21.26367728589394,420000986,-42.23025661696033
480000984,-21.10287288774043,480000984,-21.26364634035627,480000984,-42.22739464588695
540000982,-21.10285928056432,540000982,-21.26361126903712,540000982,-42.22415335910557
600000980,-21.10284407260299,600000980,-21.26357207204424,600000980,-42.22053360718913
660000978,-21.10282726387537,660000978,-21.26352874949323,660000978,-42.21653633825819
720000976,-21.10280885440354,720000976,-21.26348130151302,720000976,-42.21216259717166
780000974,-21.10278884420815,780000974,-21.26342972824942,780000974,-42.20741352466555
840000972,-21.10276723331438,840000972,-21.26337402985768,840000972,-42.20229035630585
900000970,-21.1027440217504,900000970,-21.26331420650165,900000970,-42.19679442142113
960000968,-21.10271920954187,960000968,-21.26325025836644,960000968,-42.19092714206988
1020000966,-21.10269279672234,1020000966,-21.26318218563935,1020000966,-42.18469003167093
1080000964,-21.10266478332383,1080000964,-21.2631099885269,1080000964,-42.17808469385211
1140000962,-21.10263516937997,1140000962,-21.26303366724693,1140000962,-42.1711128210682
1200000960,-21.10260395492681,1200000960,-21.26295322202955,1200000960,-42.16377619314891
1260000958,-21.10257114000441,1260000958,-21.2628686531151,1260000958,-42.15607667581396
1320000956,-21.10253672465261,1320000956,-21.26277996075786,1320000956,-42.14801621916595
1380000954,-21.10250070891351,1380000954,-21.26268714522515,1380000954,-42.139596856076
1440000952,-21.1024630928309,1440000952,-21.26259020679725,1440000952,-42.13082070051275
1500000950,-21.10242387645193,1500000950,-21.26248914576519,1500000950,-42.12168994581104
1560000948,-21.10238305982746,1560000948,-21.26238396242793,1560000948,-42.11220686290144
1620000946,-21.10234064300182,1620000946,-21.26227465711036,1620000946,-42.10237379861959
1680000944,-21.10229662603278,1680000944,-21.26216123013422,1680000944,-42.09219317361401
1740000942,-21.10225100897267,1740000942,-21.26204368184223,1740000942,-42.08166748064527
1800000940,-21.10220379187773,1800000940,-21.26192201258773,1800000940,-42.07079928256029
1860000938,-21.10215497480554,1860000938,-21.26179622273856,1860000938,-42.05959121034495
1920000936,-21.10210455781707,1920000936,-21.26166631267016,1920000936,-42.0480459610598
1980000934,-21.1020525409746,1980000934,-21.261532282773,1980000934,-42.03616629584602
2040000932,-21.10199892434012,2040000932,-21.26139413345331,2040000932,-42.02395503788861
2100000930,-21.10194370798393,2100000930,-21.26125186512036,2100000930,-42.011415070184
2160000928,-21.10188689197191,2160000928,-21.26110547820362,2160000928,-41.9985493336109
2220000926,-21.10182847637175,2220000926,-21.2609549731478,2220000926,-41.98536082470601
2280000924,-21.10176846125893,2280000924,-21.26080035039734,2280000924,-41.97185259344482
2340000922,-21.10170684670597,2340000922,-21.26064161042166,2340000922,-41.95802774122928
2400000920,-21.10164363279018,2400000920,-21.26047875369508,2400000920,-41.94388941861177
2460000918,-21.10157881958578,2460000918,-21.26031178071012,2460000918,-41.92944082319998
2520000916,-21.10151240717517,2520000916,-21.2601406919659,2520000916,-41.91468519736733
2580000914,-21.10144439564241,2580000914,-21.25996548797295,2580000914,-41.89962582614256
2640000912,-21.10137478506637,2640000912,-21.25978616926351,2640000912,-41.88426603510585
2700000910,-21.10130357553774,2700000910,-21.25960273636988,2700000910,-41.86860918801416
2760000908,-21.10123076713928,2760000908,-21.25941518984934,2760000908,-41.85265868488781
2820000906,-21.10115635996497,2820000906,-21.25922353025878,2820000906,-41.83641795958805
2880000904,-21.10108035410565,2880000904,-21.2590277581746,2880000904,-41.81989047787376
2940000902,-21.10100274965391,2940000902,-21.25882787418538,2940000902,-41.80307973517624
3000000900,-21.10092354670408,3000000900,-21.25862387889266,3000000900,-41.78598925453487
3060000898,-21.1008427453554,3060000898,-21.25841577290654,3060000898,-41.76862258441776
3120000896,-21.10076034570986,3120000896,-21.25820355684782,3120000896,-41.75098329667716
3180000894,-21.10067634786338,3180000894,-21.25798723136066,3180000894,-41.73307498460454
3240000892,-21.10059075192464,3240000892,-21.25776679708604,3240000892,-41.71490126069038
3300000890,-21.1005035579944,3300000890,-21.25754225469267,3300000890,-41.69646575483532
3360000888,-21.10041476618515,3360000888,-21.25731360484573,3360000888,-41.67777211217367
3420000886,-21.10032437660207,3420000886,-21.25708084823671,3420000886,-41.65882399130464
3480000884,-21.10023238935836,3480000884,-21.25684398556043,3480000884,-41.63962506225079
3540000882,-21.10013880456702,3540000882,-21.25660301752907,3540000882,-41.62017900464593
3600000880,-21.10004362234289,3600000880,-21.2563579448616,3600000880,-41.60048950582676
3660000878,-21.09994684280371,3660000878,-21.25610876829512,3660000878,-41.58056025906611
3720000876,-21.09984846606732,3720000876,-21.25585548857614,3720000876,-41.56039496177801
3780000874,-21.09974849225878,3780000874,-21.25559810645873,3780000874,-41.53999731371783
3840000872,-21.09964692149517,3840000872,-21.2553366227212,3840000872,-41.51937101543754
3900000870,-21.09954375390632,3900000870,-21.25507103814144,3900000870,-41.4985197663971
3960000868,-21.09943898961853,3960000868,-21.25480135351376,3960000868,-41.47744726350573
4020000866,-21.09933262875794,4020000866,-21.25452756965053,4020000866,-41.45615719950904
4080000864,-21.09922467145761,4080000864,-21.25424968736866,4080000864,-41.4346532613784
4140000862,-21.09911511785066,4140000862,-21.25396770749941,4140000862,-41.41293912884011
4200000860,-21.09900396807014,4200000860,-21.25368163088813,4200000860,-41.39101847294963
4260000858,-21.09889122225553,4260000858,-21.2533914583878,4260000858,-41.36889495461227
4320000856,-21.09877688054369,4320000856,-21.25309719086923,4320000856,-41.34657222327043
4380000854,-21.09866094307598,4380000854,-21.25279882921089,4380000854,-41.32405391550129
4440000852,-21.0985434099937,4440000852,-21.25249637430671,4440000852,-41.30134365377545
4500000850,-21.09842428144301,4500000850,-21.25218982706069,4500000850,-41.27844504519756
4560000848,-21.09830355757081,4560000848,-21.25187918838721,4560000848,-41.25536168025968
4620000846,-21.09818123852378,4620000846,-21.25156445921789,4620000846,-41.23209713176046
4680000844,-21.0980573244531,4680000844,-21.25124564049198,4680000844,-41.20865495359837
4740000842,-21.09793181551218,4740000842,-21.2509227331613,4740000842,-41.18503867974971
4800000840,-21.09780471185403,4800000840,-21.25059573819166,4800000840,-41.16125182320599
4860000838,-21.09767601363516,4860000838,-21.25026465656008,4860000838,-41.13729787501541
4920000836,-21.09754572101502,4920000836,-21.24992948925374,4920000836,-41.11318030325769
4980000834,-21.09741383415269,4980000834,-21.24959023727491,4980000834,-41.08890255223876
5040000832,-21.09728035321137,5040000832,-21.24924690163413,5040000832,-41.06446804150927
5100000830,-21.09714527835273,5100000830,-21.24889948336053,5100000830,-41.03988016516951
5160000828,-21.09700860974517,5160000828,-21.24854798348754,5160000828,-41.0151422909192
5220000826,-21.09687034755718,5220000826,-21.24819240306284,5220000826,-40.99025775941791
5280000824,-21.09673049195566,5280000824,-21.24783274315083,5280000824,-40.96522988359014
5340000822,-21.09658904311483,5340000822,-21.24746900482345,5340000822,-40.94006194786819
5400000820,-21.09644600120863,5400000820,-21.24710118916204,5400000820,-40.91475720758974
5460000818,-21.09630136641262,5460000818,-21.24672929726487,5460000818,-40.88931888843747
5520000816,-21.09615513890166,5520000816,-21.24635333024419,5520000816,-40.8637501858698
5580000814,-21.09600731886125,5580000814,-21.24597328921336,5580000814,-40.8380542644874
5640000812,-21.0958579064673,5640000812,-21.24558917531111,5640000812,-40.81223425774139
5700000810,-21.09570690190766,5700000810,-21.24520098967675,5700000810,-40.7862932672717
5760000808,-21.09555430536344,5760000808,-21.24480873347168,5760000808,-40.76023436264649
5820000806,-21.09540011702593,5820000806,-21.24441240785918,5820000806,-40.73406058083019
5880000804,-21.09524433708264,5880000804,-21.24401201402139,5880000804,-40.70777492594476
5940000802,-21.09508696572324,5940000802,-21.24360755315217,5940000802,-40.68138036887894
6000000800,-21.09492800314451,6000000800,-21.24319902644973,6000000800,-40.65487984695795
6060000798,-21.09476744954098,6060000798,-21.24278643513079,6060000798,-40.6282762637554
6120000796,-21.09460530510821,6120000796,-21.24236978042511,6120000796,-40.60157248881551
6180000794,-21.09444157004619,6180000794,-21.24194906357,6180000794,-40.57477135741523
6240000792,-21.0942762445528,6240000792,-21.24152428581989,6240000792,-40.54787567043811
6300000790,-21.09410932883513,6300000790,-21.24109544843263,6300000790,-40.52088819410894
6360000788,-21.09394082309807,6360000788,-21.24066255268111,6360000788,-40.4938116599595
6420000786,-21.09377072754503,6420000786,-21.24022559985752,6420000786,-40.46664876473496
6480000784,-21.0935990423876,6480000784,-21.23978459125512,6480000784,-40.43940217017402
6540000782,-21.09342576783405,6540000782,-21.2393395281865,6540000782,-40.41207450309446
6600000780,-21.09325090409943,6600000780,-21.23889041196931,6600000780,-40.38466835523437
6660000778,-21.0930744513967,6660000778,-21.23843724393949,6660000778,-40.35718628333327
6720000776,-21.09289640994121,6720000776,-21.2379800254423,6720000776,-40.32963080906163
6780000774,-21.09271677995352,6780000774,-21.23751875783072,6780000774,-40.30200441905098
6840000772,-21.09253556165339,6840000772,-21.23705344247562,6840000772,-40.27430956496011
6900000770,-21.09235275526294,6900000770,-21.23658408075426,6900000770,-40.24654866351766
6960000768,-21.09216836100453,6960000768,-21.23611067406177,6960000768,-40.21872409660979
7020000766,-21.09198237910635,7020000766,-21.23563322379743,7020000766,-40.19083821133457
7080000764,-21.09179480979657,7080000764,-21.23515173137603,7080000764,-40.16289332014489
7140000762,-21.09160565330306,7140000762,-21.23466619822693,7140000762,-40.13489170099015
7200000760,-21.09141490985794,7200000760,-21.23417662578568,7200000760,-40.10683559740091
7260000758,-21.09122257969721,7260000758,-21.23368301550082,7260000758,-40.07872721866082
7320000756,-21.09102866305381,7320000756,-21.2331853688351,7320000756,-40.05056874001934
7380000754,-21.09083316016678,7380000754,-21.23268368725962,7380000754,-40.02236230279293
7440000752,-21.09063607127609,7440000752,-21.23217797225739,7440000752,-39.99411001460876
7500000750,-21.09043739662076,7500000750,-21.23166822532784,7500000750,-39.96581394962162
7560000748,-21.09023713644719,7560000748,-21.23115444797316,7560000748,-39.93747614864633
7620000746,-21.09003529099683,7620000746,-21.23063664171725,7620000746,-39.90909861949083
7680000744,-21.08983186052104,7680000744,-21.2301148080838,7680000744,-39.88068333708036
7740000742,-21.08962684526627,7740000742,-21.22958894861817,7740000742,-39.85223224379209
7800000740,-21.08942024548434,7800000740,-21.22905906487153,7800000740,-39.82374724965284
7860000738,-21.089212061426,7860000738,-21.22852515841197,7860000738,-39.79523023263432
7920000736,-21.08900229335001,7920000736,-21.22798723080884,7920000736,-39.7666830388542
7980000734,-21.0887909415101,7980000734,-21.2274452836537,7980000734,-39.73810748294625
8040000732,-21.08857800616579,8040000732,-21.22689931854367,8040000732,-39.70950534827054
8100000730,-21.08836348757662,8100000730,-21.22634933709033,8100000730,-39.68087838722868
8160000728,-21.08814738600667,8160000728,-21.22579534091155,8160000728,-39.65222832153478
8220000726,-21.0879297017182,8220000726,-21.22523733164349,8220000726,-39.62355684256223
8280000724,-21.08771043497853,8280000724,-21.22467531092898,8280000724,-39.59486561158508
8340000722,-21.08748958605702,8340000722,-21.22410928042051,8340000722,-39.56615626012479
8400000720,-21.08726715522078,8400000720,-21.22353924178872,8400000720,-39.53743039026942
8460000718,-21.08704314274313,8460000718,-21.22296519670979,8460000718,-39.50868957495714
8520000716,-21.08681754889962,8520000716,-21.2223871468699,8520000716,-39.47993535830494
8580000714,-21.08659037396344,8580000714,-21.22180509397317,8580000714,-39.45116925596277
8640000712,-21.08636161821399,8640000712,-21.22121903972869,8640000712,-39.42239275539733
8700000710,-21.08613128192911,8700000710,-21.22062898586072,8700000710,-39.39360731623897
8760000708,-21.08589936538994,8760000708,-21.22003493410494,8760000708,-39.36481437062361
8820000706,-21.08566586888163,8820000706,-21.21943688620233,8820000706,-39.33601532346406
8880000704,-21.08543079269042,8880000704,-21.21883484390811,8880000704,-39.30721155286216
8940000702,-21.08519413709939,8940000702,-21.21822880899575,8940000702,-39.27840441041837
9000000700,-21.08495590240062,9000000700,-21.21761878323877,9000000700,-39.2495952215145
9060000698,-21.08471608888277,9060000698,-21.21700476843026,9060000698,-39.22078528572634
9120000696,-21.08447469683941,9120000696,-21.21638676636988,9120000696,-39.19197587709193
9180000694,-21.08423172656721,9180000694,-21.21576477886654,9180000694,-39.1631682444818
9240000692,-21.08398717835911,9240000692,-21.2151388077479,9240000692,-39.13436361195346
9300000690,-21.08374105251592,9300000690,-21.21450885484435,9300000690,-39.10556317903435
9360000688,-21.08349334933686,9360000688,-21.21387492200303,9360000688,-39.07676812109374
9420000686,-21.08324406912455,9420000686,-21.2132370110787,9420000686,-39.04797958967271
9480000684,-21.0829932121834,9480000684,-21.21259512393743,9480000684,-39.01919871280366
9540000682,-21.08274077881935,9540000682,-21.21194926245911,9540000682,-38.99042659536251
9600000680,-21.08248676933871,9600000680,-21.21129942853227,9600000680,-38.96166431937915
9660000678,-21.08223118405206,9660000678,-21.21064562405617,9660000678,-38.93291294438407
9720000676,-21.08197402327108,9720000676,-21.20998785094228,9720000676,-38.90417350771618
9780000674,-21.08171528730932,9780000674,-21.20932611111158,9780000674,-38.87544702487493
9840000672,-21.08145497648141,9840000672,-21.20866040649756,9840000672,-38.84673448982468
9900000670,-21.0811930911055,9900000670,-21.20799073904238,9900000670,-38.81803687532347
9960000668,-21.08092963150035,9960000668,-21.20731711069999,9960000668,-38.78935513324804
10020000666,-21.08066459798523,10020000666,-21.20663952343899,10020000666,-38.76069019491516
10080000664,-21.0803979908855,10080000664,-21.20595797923121,10080000664,-38.73204297137686
10140000662,-21.08012981052426,10140000662,-21.20527248006566,10140000662,-38.70341435376032
10200000660,-21.07986005722709,10200000660,-21.20458302794085,10200000660,-38.67480521357011
10260000658,-21.0795887313251,10260000658,-21.20388962486138,10260000658,-38.64621640297986
10320000656,-21.07931583314598,10320000656,-21.20319227285072,10320000656,-38.61764875517819
10380000654,-21.07904136302321,10380000654,-21.20249097393476,10380000654,-38.58910308462377
10440000652,-21.07876532128962,10440000652,-21.2017857301571,10440000652,-38.56058018739067
10500000650,-21.07848770828252,10500000650,-21.201076543566,10500000650,-38.53208084143081
10560000648,-21.07820852433894,10560000648,-21.20036341622583,10560000648,-38.50360580690105
10620000646,-21.07792776979803,10620000646,-21.1996463502076,10620000646,-38.47515582642362
10680000644,-21.07764544500181,10680000644,-21.19892534759391,10680000644,-38.44673162540433
10740000642,-21.07736155029181,10740000642,-21.19820041048095,10740000642,-38.41833391230264
10800000640,-21.0770760860148,10800000640,-21.1974715409717,10800000640,-38.38996337891586
10860000638,-21.07678905251732,10860000638,-21.19673874117987,10860000638,-38.36162070065307
10920000636,-21.07650045014939,10920000636,-21.19600201323036,10920000636,-38.33330653683427
10980000634,-21.07621027925963,10980000634,-21.1952613592614,10980000634,-38.30502153095062
11040000632,-21.07591854020088,11040000632,-21.19451678142023,11040000632,-38.27676631093289
11100000630,-21.07562523332779,11100000630,-21.19376828186162,11100000630,-38.24854148941869
11160000628,-21.07533035899745,11160000628,-21.19301586275196,11160000628,-38.22034766401256
11220000626,-21.07503391756558,11220000626,-21.19225952627407,11220000626,-38.19218541758075
11280000624,-21.07473590939613,11280000624,-21.19149927460832,11280000624,-38.16405531843456
11340000622,-21.074436334847,11340000622,-21.19073510996051,11340000622,-38.13595792068858
11400000620,-21.07413519428121,11400000620,-21.18996703453898,11400000620,-38.1078937644292
11460000618,-21.07383248806793,11460000618,-21.18919505055951,11460000618,-38.07986337597271
11520000616,-21.07352821657203,11520000616,-21.18841916025346,11520000616,-38.05186726815524
11580000614,-21.07322238016295,11580000614,-21.187639365862,11580000614,-38.02390594053377
11640000612,-21.07291497921029,11640000612,-21.18685566963646,11640000612,-37.99597987964182
11700000610,-21.07260601408909,11700000610,-21.18606807383411,11700000610,-37.96808955920933
11760000608,-21.07229548517286,11760000608,-21.1852765807289,11760000608,-37.94023544041406
11820000606,-21.07198339283759,11820000606,-21.18448119260181,11820000606,-37.91241797209929
11880000604,-21.07166973746075,11880000604,-21.18368191174469,11880000604,-37.88463759099943
11940000602,-21.07135451942444,11940000602,-21.18287874045674,11940000602,-37.85689472195514
12000000600,-21.07103773911076,12000000600,-21.18207168105018,12000000600,-37.82918977814325
12060000598,-21.07071939690006,12060000598,-21.18126073585143,12060000598,-37.80152316131169
12120000596,-21.07039949318001,12120000596,-21.18044590718939,12120000596,-37.77389526193784
12180000594,-21.07007802833903,12180000594,-21.17962719740512,12180000594,-37.74630645948083
12240000592,-21.06975500276484,12240000592,-21.17880460885325,12240000592,-37.71875712258205
12300000590,-21.06943041684686,12300000590,-21.17797814389759,12300000590,-37.69124760927062
12360000588,-21.06910427098149,12360000588,-21.17714780490634,12360000588,-37.66377826712577
12420000586,-21.06877656556049,12420000586,-21.17631359426588,12420000586,-37.63634943353991
12480000584,-21.06844730098167,12480000584,-21.17547551436708,12480000584,-37.60896143585177
12540000582,-21.06811647764249,12540000582,-21.17463356761303,12540000582,-37.58161459157628
12600000580,-21.06778409594304,12600000580,-21.17378775641659,12600000580,-37.55430920857052
12660000578,-21.06745015628502,12660000578,-21.17293808320153,12660000578,-37.52704558523679
12720000576,-21.06711465907423,12720000576,-21.17208455039502,12720000576,-37.49982401067179
12780000574,-21.06677760471104,12780000574,-21.17122716044829,12780000574,-37.47264476491338
12840000572,-21.06643899360893,12840000572,-21.17036591580413,12840000572,-37.44550811901432
12900000570,-21.06609882617424,12900000570,-21.16950081892874,12900000570,-37.41841433532018
12960000568,-21.06575710281534,12960000568,-21.16863187229752,12960000568,-37.39136366758644
13020000566,-21.06541382394952,13020000566,-21.16775907838571,13020000566,-37.36435636112763
13080000564,-21.06506898998622,13080000564,-21.16688243969157,13080000564,-37.33739265304597
