;Version, 1, 0
;S21 dB20 (modelFiles=toplevel.scs:ff_lib),;S21 dB20 (modelFiles=toplevel.scs:ss_lib),;S21 dB20 (modelFiles=toplevel.scs:tt_lib)
;X, Y,;X, Y,;X, Y
;Re, Re,;Re, Re,;Re, Re
;freq, S-Param,;freq, S-Param,;freq, S-Param
;Hz, dB,;Hz, dB,;Hz, dB
1000,-10.20953613099956,1000,-10.10812956023233,1000,-10.07627433537876
60000998,-10.20953615220014,60000998,-10.10812962502069,60000998,-10.07627438029901
120000996,-10.20953621580025,120000996,-10.10812981938061,120000996,-10.07627451505624
180000994,-10.20953632180016,180000994,-10.10813014331276,180000994,-10.07627473965108
240000992,-10.20953647019987,240000992,-10.10813059681693,240000992,-10.07627505408318
300000990,-10.20953666099913,300000990,-10.10813117989295,300000990,-10.07627545835245
360000988,-10.209536894198,360000988,-10.10813189254089,360000988,-10.07627595245897
420000986,-10.20953716979632,420000986,-10.10813273476036,420000986,-10.07627653640239
480000984,-10.209537487794,480000984,-10.10813370655145,480000984,-10.07627721018275
540000982,-10.20953784819113,540000982,-10.10813480791395,540000982,-10.07627797380004
600000980,-10.20953825098756,600000980,-10.1081360388479,600000980,-10.0762788272541
660000978,-10.20953869618318,660000978,-10.10813739935296,660000978,-10.07627977054476
720000976,-10.20953918377768,720000976,-10.10813888942866,720000976,-10.07628080367165
780000974,-10.20953971377135,780000974,-10.10814050907548,780000974,-10.07628192663498
840000972,-10.20954028616381,840000972,-10.10814225829279,840000972,-10.0762831394344
900000970,-10.20954090095472,900000970,-10.1081441370802,900000970,-10.07628444206962
960000968,-10.20954155814443,960000968,-10.1081461454378,960000968,-10.07628583454064
1020000966,-10.20954225773238,1020000966,-10.10814828336513,1020000966,-10.07628731684708
1080000964,-10.20954299971842,1080000964,-10.10815055086184,1080000964,-10.07628888898853
1140000962,-10.20954378410246,1140000962,-10.10815294792778,1140000962,-10.07629055096504
1200000960,-10.2095446108844,1200000960,-10.1081554745625,1200000960,-10.07629230277625
1260000958,-10.20954548006378,1260000958,-10.10815813076568,1260000958,-10.07629414442186
1320000956,-10.20954639164057,1320000956,-10.108160916537,1320000956,-10.0762960759014
1380000954,-10.20954734561457,1380000954,-10.10816383187598,1380000954,-10.07629809721471
1440000952,-10.20954834198541,1440000952,-10.10816687678236,1440000952,-10.07630020836156
1500000950,-10.20954938075293,1500000950,-10.10817005125579,1500000950,-10.07630240934148
1560000948,-10.20955046191673,1560000948,-10.10817335529529,1560000948,-10.07630470015388
1620000946,-10.20955158547686,1620000946,-10.10817678890122,1620000946,-10.07630708079889
1680000944,-10.20955275143266,1680000944,-10.10818035207254,1680000944,-10.07630955127578
1740000942,-10.20955395978396,1740000942,-10.1081840448089,1740000942,-10.07631211158411
1800000940,-10.20955521053057,1800000940,-10.10818786710974,1800000940,-10.07631476172357
1860000938,-10.20955650367216,1860000938,-10.10819181897481,1860000938,-10.07631750169382
1920000936,-10.20955783920831,1920000936,-10.1081959004033,1920000936,-10.07632033149426
1980000934,-10.20955921713871,1980000934,-10.10820011139476,1980000934,-10.07632325112441
2040000932,-10.20956063746319,2040000932,-10.10820445194863,2040000932,-10.07632626058401
2100000930,-10.20956210018098,2100000930,-10.10820892206408,2100000930,-10.07632935987212
2160000928,-10.20956360529195,2160000928,-10.10821352174062,2160000928,-10.07633254898859
2220000926,-10.20956515279597,2220000926,-10.10821825097802,2220000926,-10.07633582793296
2280000924,-10.20956674269238,2280000924,-10.10822310977499,2280000924,-10.07633919670448
2340000922,-10.20956837498073,2340000922,-10.10822809813123,2340000922,-10.07634265530262
2400000920,-10.20957004966062,2400000920,-10.10823321604592,2400000920,-10.07634620372676
2460000918,-10.20957176673187,2460000918,-10.10823846351861,2460000918,-10.07634984197655
2520000916,-10.20957352619403,2520000916,-10.10824384054836,2520000916,-10.07635357005129
2580000914,-10.20957532804623,2580000914,-10.10824934713442,2580000914,-10.07635738795019
2640000912,-10.20957717228858,2640000912,-10.10825498327609,2640000912,-10.07636129567297
2700000910,-10.20957905892005,2700000910,-10.10826074897242,2700000910,-10.07636529321842
2760000908,-10.20958098794084,2760000908,-10.10826664422325,2760000908,-10.0763693805866
2820000906,-10.20958295934991,2820000906,-10.10827266902703,2820000906,-10.07637355777634
2880000904,-10.20958497314676,2880000904,-10.10827882338308,2880000904,-10.07637782478699
2940000902,-10.20958702933129,2940000902,-10.10828510729085,2940000902,-10.07638218161795
3000000900,-10.20958912790286,3000000900,-10.10829152074938,3000000900,-10.07638662826861
3060000898,-10.20959126886082,3060000898,-10.10829806375776,3060000898,-10.07639116473818
3120000896,-10.20959345220443,3120000896,-10.1083047363148,3120000896,-10.07639579102568
3180000894,-10.20959567793367,3180000894,-10.10831153842025,3180000894,-10.07640050713071
3240000892,-10.20959794604753,3240000892,-10.10831847007245,3240000892,-10.07640531305216
3300000890,-10.20960025654578,3300000890,-10.10832553127114,3300000890,-10.07641020878959
3360000888,-10.20960260942743,3360000888,-10.10833272201464,3360000888,-10.07641519434184
3420000886,-10.20960500469231,3420000886,-10.10834004230259,3420000886,-10.07642026970832
3480000884,-10.20960744233953,3480000884,-10.10834749213349,3480000884,-10.07642543488809
3540000882,-10.20960992236871,3540000882,-10.10835507150683,3540000882,-10.07643068988041
3600000880,-10.20961244477902,3600000880,-10.10836278042103,3600000880,-10.07643603468426
3660000878,-10.20961500956994,3660000878,-10.10837061887539,3660000878,-10.07644146929892
3720000876,-10.20961761674097,3720000876,-10.10837858686898,3720000876,-10.07644699372352
3780000874,-10.20962026629095,3780000874,-10.10838668440001,3780000874,-10.07645260795673
3840000872,-10.20962295821989,3840000872,-10.10839491146816,3840000872,-10.07645831199825
3900000870,-10.20962569252654,3900000870,-10.10840326807183,3900000870,-10.07646410584663
3960000868,-10.20962846921041,3960000868,-10.10841175420993,3960000868,-10.07646998950115
4020000866,-10.20963128827107,4020000866,-10.10842036988152,4020000866,-10.07647596296091
4080000864,-10.20963414970748,4080000864,-10.10842911508531,4080000864,-10.07648202622482
4140000862,-10.20963705351915,4140000862,-10.10843798982012,4140000862,-10.076488179292
4200000860,-10.20963999970523,4200000860,-10.10844699408465,4200000860,-10.07649442216133
4260000858,-10.20964298826489,4260000858,-10.10845612787759,4260000858,-10.07650075483168
4320000856,-10.2096460191975,4320000856,-10.10846539119786,4320000856,-10.07650717730215
4380000854,-10.2096490925023,4380000854,-10.10847478404416,4380000854,-10.07651368957169
4440000852,-10.20965220817855,4440000852,-10.10848430641506,4440000852,-10.07652029163911
4500000850,-10.20965536622541,4500000850,-10.10849395830948,4500000850,-10.07652698350347
4560000848,-10.20965856664203,4560000848,-10.10850373972604,4560000848,-10.07653376516361
4620000846,-10.20966180942776,4620000846,-10.10851365066333,4620000846,-10.0765406366184
4680000844,-10.20966509458174,4680000844,-10.10852369111998,4680000844,-10.07654759786672
4740000842,-10.20966842210306,4740000842,-10.10853386109455,4740000842,-10.07655464890748
4800000840,-10.20967179199095,4800000840,-10.10854416058592,4800000840,-10.07656178973946
4860000838,-10.20967520424468,4860000838,-10.1085545895925,4860000838,-10.07656902036158
4920000836,-10.2096786588631,4920000836,-10.10856514811275,4920000836,-10.07657634077241
4980000834,-10.20968215584557,4980000834,-10.10857583614549,4980000834,-10.07658375097103
5040000832,-10.20968569519117,5040000832,-10.10858665368885,5040000832,-10.07659125095587
5100000830,-10.20968927689914,5100000830,-10.10859760074187,5100000830,-10.07659884072625
5160000828,-10.20969290096837,5160000828,-10.10860867730267,5160000828,-10.07660652028041
5220000826,-10.20969656739785,5220000826,-10.10861988336973,5220000826,-10.07661428961717
5280000824,-10.20970027618712,5280000824,-10.10863121894178,5280000824,-10.07662214873552
5340000822,-10.20970402733485,5340000822,-10.10864268401713,5340000822,-10.07663009763406
5400000820,-10.20970782084026,5400000820,-10.1086542785941,5400000820,-10.07663813631126
5460000818,-10.20971165670229,5460000818,-10.10866600267111,5460000818,-10.07664626476597
5520000816,-10.20971553492027,5520000816,-10.10867785624696,5520000816,-10.07665448299713
5580000814,-10.20971945549273,5580000814,-10.10868983931935,5580000814,-10.07666279100273
5640000812,-10.20972341841915,5640000812,-10.10870195188723,5640000812,-10.07667118878197
5700000810,-10.20972742369818,5700000810,-10.10871419394851,5700000810,-10.07667967633316
5760000808,-10.20973147132928,5760000808,-10.10872656550187,5760000808,-10.07668825365521
5820000806,-10.20973556131097,5820000806,-10.10873906654534,5820000806,-10.07669692074639
5880000804,-10.20973969364241,5880000804,-10.10875169707752,5880000804,-10.07670567760553
5940000802,-10.20974386832281,5940000802,-10.10876445709648,5940000802,-10.07671452423113
6000000800,-10.20974808535064,6000000800,-10.10877734660035,6000000800,-10.07672346062151
6060000798,-10.20975234472501,6060000798,-10.10879036558731,6060000798,-10.07673248677531
6120000796,-10.20975664644506,6120000796,-10.10880351405599,6120000796,-10.07674160269119
6180000794,-10.20976099050943,6180000794,-10.10881679200419,6180000794,-10.07675080836746
6240000792,-10.20976537691755,6240000792,-10.10883019943052,6240000792,-10.07676010380307
6300000790,-10.20976980566773,6300000790,-10.10884373633279,6300000790,-10.07676948899591
6360000788,-10.20977427675898,6360000788,-10.10885740270897,6360000788,-10.07677896394448
6420000786,-10.20977879019053,6420000786,-10.10887119855776,6420000786,-10.07678852864775
6480000784,-10.20978334596075,6480000784,-10.1088851238769,6480000784,-10.07679818310356
6540000782,-10.20978794406896,6540000782,-10.10889917866456,6540000782,-10.07680792731077
6600000780,-10.20979258451367,6600000780,-10.10891336291858,6600000780,-10.07681776126727
6660000778,-10.2097972672939,6660000778,-10.10892767663746,6660000778,-10.07682768497201
6720000776,-10.20980199240854,6720000776,-10.1089421198191,6720000776,-10.07683769842307
6780000774,-10.20980675985621,6780000774,-10.1089566924613,6780000774,-10.07684780161884
6840000772,-10.2098115696358,6840000772,-10.10897139456231,6840000772,-10.07685799455761
6900000770,-10.20981642174604,6900000770,-10.10898622611973,6900000770,-10.07686827723769
6960000768,-10.20982131618594,6960000768,-10.10900118713216,6960000768,-10.07687864965752
7020000766,-10.20982625295403,7020000766,-10.10901627759703,7020000766,-10.07688911181531
7080000764,-10.20983123204915,7080000764,-10.10903149751231,7080000764,-10.07689966370932
7140000762,-10.20983625347002,7140000762,-10.10904684687624,7140000762,-10.07691030533787
7200000760,-10.20984131721568,7200000760,-10.10906232568664,7200000760,-10.07692103669929
7260000758,-10.20984642328438,7260000758,-10.10907793394106,7260000758,-10.07693185779157
7320000756,-10.20985157167511,7320000756,-10.10909367163769,7320000756,-10.07694276861318
7380000754,-10.20985676238664,7380000754,-10.10910953877432,7380000754,-10.07695376916225
7440000752,-10.20986199541754,7440000752,-10.10912553534853,7440000752,-10.07696485943672
7500000750,-10.20986727076652,7500000750,-10.10914166135852,7500000750,-10.07697603943526
7560000748,-10.20987258843225,7560000748,-10.10915791680169,7560000748,-10.07698730915563
7620000746,-10.20987794841359,7620000746,-10.10917430167639,7620000746,-10.0769986685963
7680000744,-10.20988335070883,7680000744,-10.10919081597966,7680000744,-10.07701011775509
7740000742,-10.20988879531692,7740000742,-10.10920745970963,7740000742,-10.07702165663019
7800000740,-10.20989428223629,7800000740,-10.1092242328639,7800000740,-10.07703328521976
7860000738,-10.20989981146596,7860000738,-10.10924113544048,7860000738,-10.0770450035221
7920000736,-10.20990538300396,7920000736,-10.10925816743663,7920000736,-10.07705681153485
7980000734,-10.20991099684934,7980000734,-10.10927532885022,7980000734,-10.07706870925642
8040000732,-10.20991665300049,8040000732,-10.10929261967883,8040000732,-10.07708069668473
8100000730,-10.20992235145613,8100000730,-10.10931003992036,8100000730,-10.0770927738178
8160000728,-10.20992809221464,8160000728,-10.10932758957195,8160000728,-10.07710494065354
8220000726,-10.20993387527497,8220000726,-10.10934526863166,8220000726,-10.07711719719019
8280000724,-10.20993970063524,8280000724,-10.10936307709695,8280000724,-10.07712954342572
8340000722,-10.20994556829405,8340000722,-10.10938101496502,8340000722,-10.07714197935777
8400000720,-10.20995147825029,8400000720,-10.10939908223392,8400000720,-10.07715450498475
8460000718,-10.20995743050217,8460000718,-10.10941727890103,8460000718,-10.07716712030438
8520000716,-10.2099634250482,8520000716,-10.10943560496361,8520000716,-10.07717982531443
8580000714,-10.20996946188697,8580000714,-10.10945406041936,8580000714,-10.07719262001303
8640000712,-10.2099755410169,8640000712,-10.10947264526554,8640000712,-10.07720550439803
8700000710,-10.20998166243657,8700000710,-10.10949135950004,8700000710,-10.07721847846733
8760000708,-10.20998782614448,8760000708,-10.10951020312012,8760000708,-10.07723154221888
8820000706,-10.20999403213899,8820000706,-10.10952917612308,8820000706,-10.07724469565034
8880000704,-10.21000028041829,8880000704,-10.10954827850598,8880000704,-10.07725793875936
8940000702,-10.21000657098133,8940000702,-10.10956751026695,8940000702,-10.07727127154437
9000000700,-10.21001290382619,9000000700,-10.10958687140285,9000000700,-10.07728469400267
9060000698,-10.21001927895149,9060000698,-10.10960636191127,9060000698,-10.07729820613246
9120000696,-10.21002569635556,9120000696,-10.10962598178956,9120000696,-10.07731180793119
9180000694,-10.21003215603655,9180000694,-10.1096457310347,9180000694,-10.07732549939665
9240000692,-10.21003865799327,9240000692,-10.10966560964433,9240000692,-10.07733928052672
9300000690,-10.21004520222385,9300000690,-10.10968561761565,9300000690,-10.07735315131923
9360000688,-10.21005178872673,9360000688,-10.10970575494586,9360000688,-10.07736711177166
9420000686,-10.21005841750016,9420000686,-10.10972602163224,9420000686,-10.07738116188177
9480000684,-10.21006508854247,9480000684,-10.10974641767199,9480000684,-10.07739530164734
9540000682,-10.21007180185214,9540000682,-10.10976694306234,9540000682,-10.07740953106601
9600000680,-10.2100785574274,9600000680,-10.10978759780043,9600000680,-10.07742385013549
9660000678,-10.21008535526667,9660000678,-10.1098083818836,9660000678,-10.07743825885338
9720000676,-10.2100921953681,9720000676,-10.10982929530883,9720000676,-10.07745275721739
9780000674,-10.21009907773004,9780000674,-10.10985033807327,9780000674,-10.07746734522489
9840000672,-10.21010600235073,9840000672,-10.10987151017419,9840000672,-10.07748202287387
9900000670,-10.21011296922857,9900000670,-10.10989281160852,9900000670,-10.07749679016162
9960000668,-10.21011997836153,9960000668,-10.10991424237332,9960000668,-10.0775116470857
10020000666,-10.21012702974824,10020000666,-10.10993580246588,10020000666,-10.07752659364392
10080000664,-10.21013412338661,10080000664,-10.10995749188305,10080000664,-10.0775416298337
10140000662,-10.21014125927505,10140000662,-10.10997931062198,10140000662,-10.07755675565252
10200000660,-10.21014843741187,10200000660,-10.11000125867977,10200000660,-10.07757197109801
10260000658,-10.21015565779491,10260000658,-10.11002333605306,10260000658,-10.07758727616741
10320000656,-10.21016292042274,10320000656,-10.11004554273924,10320000656,-10.07760267085866
10380000654,-10.21017022529334,10380000654,-10.11006787873495,10380000654,-10.07761815516875
10440000652,-10.210177572405,10440000652,-10.11009034403742,10440000652,-10.0776337290955
10500000650,-10.21018496175575,10500000650,-10.11011293864328,10500000650,-10.07764939263608
10560000648,-10.21019239334379,10560000648,-10.11013566254974,10560000648,-10.0776651457882
10620000646,-10.21019986716727,10620000646,-10.11015851575347,10620000646,-10.07768098854897
10680000644,-10.21020738322434,10680000644,-10.11018149825133,10680000644,-10.07769692091601
10740000642,-10.21021494151317,10740000642,-10.11020461004037,10740000642,-10.07771294288665
10800000640,-10.21022254203189,10800000640,-10.11022785111727,10800000640,-10.07772905445837
10860000638,-10.21023018477851,10860000638,-10.11025122147899,10860000638,-10.07774525562822
10920000636,-10.21023786975097,10920000636,-10.11027472112209,10920000636,-10.07776154639379
10980000634,-10.21024559694762,10980000634,-10.1102983500435,10980000634,-10.07777792675231
11040000632,-10.21025336636643,11040000632,-10.11032210824025,11040000632,-10.07779439670113
11100000630,-10.21026117800549,11100000630,-10.11034599570871,11100000630,-10.07781095623767
11160000628,-10.21026903186276,11160000628,-10.11037001244563,11160000628,-10.07782760535894
11220000626,-10.21027692793641,11220000626,-10.11039415844813,11220000626,-10.07784434406259
11280000624,-10.21028486622422,11280000624,-10.11041843371223,11280000624,-10.07786117234527
11340000622,-10.21029284672439,11340000622,-10.1104428382352,11340000622,-10.07787809020473
11400000620,-10.21030086943516,11400000620,-10.11046737201363,11400000620,-10.07789509763827
11460000618,-10.21030893435399,11460000618,-10.11049203504388,11460000618,-10.07791219464267
11520000616,-10.21031704147924,11520000616,-10.11051682732265,11520000616,-10.07792938121537
11580000614,-10.21032519080871,11580000614,-10.11054174884679,11580000614,-10.07794665735348
11640000612,-10.21033338234063,11640000612,-10.11056679961267,11640000612,-10.07796402305436
11700000610,-10.21034161607261,11700000610,-10.11059197961693,11700000610,-10.07798147831474
11760000608,-10.21034989200277,11760000608,-10.1106172888561,11760000608,-10.07799902313215
11820000606,-10.21035821012904,11820000606,-10.11064272732678,11820000606,-10.07801665750362
11880000604,-10.21036657044946,11880000604,-10.11066829502554,11880000604,-10.07803438142629
11940000602,-10.21037497296168,11940000602,-10.1106939919487,11940000602,-10.07805219489712
12000000600,-10.21038341766359,12000000600,-10.11071981809272,12000000600,-10.07807009791304
12060000598,-10.21039190455345,12060000598,-10.11074577345445,12060000598,-10.07808809047156
12120000596,-10.21040043362883,12120000596,-10.11077185802997,12120000596,-10.07810617256943
12180000594,-10.21040900488754,12180000594,-10.11079807181576,12180000594,-10.07812434420367
12240000592,-10.21041761832768,12240000592,-10.11082441480837,12240000592,-10.07814260537133
12300000590,-10.2104262739471,12300000590,-10.11085088700435,12300000590,-10.07816095606975
12360000588,-10.2104349717434,12360000588,-10.11087748839963,12360000588,-10.07817939629533
12420000586,-10.2104437117146,12420000586,-10.11090421899081,12420000586,-10.0781979260455
12480000584,-10.2104524938584,12480000584,-10.11093107877437,12480000584,-10.07821654531701
12540000582,-10.21046131817266,12540000582,-10.11095806774634,12540000582,-10.07823525410685
12600000580,-10.21047018465526,12600000580,-10.11098518590337,12600000580,-10.07825405241195
12660000578,-10.21047909330393,12660000578,-10.11101243324172,12660000578,-10.07827294022946
12720000576,-10.21048804411623,12720000576,-10.11103980975711,12720000576,-10.07829191755567
12780000574,-10.21049703709041,12780000574,-10.11106731544673,12780000574,-10.07831098438836
12840000572,-10.21050607222361,12840000572,-10.11109495030579,12840000572,-10.07833014072344
12900000570,-10.21051514951394,12900000570,-10.11112271433112,12900000570,-10.07834938655844
12960000568,-10.21052426895924,12960000568,-10.11115060751911,12960000568,-10.07836872189001
13020000566,-10.21053343055687,13020000566,-10.11117862986545,13020000566,-10.07838814671485
13080000564,-10.21054263430498,13080000564,-10.11120678136673,13080000564,-10.07840766103002
