!Agilent Technologies,N5230A,MY45001891,A.06.04.21
!Agilent N5230A: A.06.04.21
!Date: Friday, April 29, 2022 16:58:43
!Correction: S11(Off) S21(Off) S12(Off) S22(Off) 
!S2P File: Measurements: S11, S21, S12, S22:
# Hz S  dB   R 50
300000 -2.561897e+001 1.347410e+002 -9.740646e+000 -4.298530e+000 -6.775806e+002 8.999393e+001 -6.808807e+002 8.999111e+001
304640.625 -2.555104e+001 1.357607e+002 -9.735834e+000 -4.741395e+000 -6.775806e+002 8.999393e+001 -6.808807e+002 8.999111e+001
309281.25 -2.566644e+001 1.341346e+002 -9.742799e+000 -5.258312e+000 -6.775806e+002 8.999393e+001 -6.808807e+002 8.999111e+001
313921.875 -2.590719e+001 1.334527e+002 -9.823479e+000 -5.258737e+000 -6.775806e+002 8.999393e+001 -6.808807e+002 8.999111e+001
318562.5 -2.589544e+001 1.347702e+002 -9.763497e+000 -5.272635e+000 -6.775806e+002 8.999393e+001 -6.808807e+002 8.999111e+001
323203.125 -2.593075e+001 1.338083e+002 -9.780712e+000 -5.861830e+000 -6.775806e+002 8.999393e+001 -6.808807e+002 8.999111e+001
327843.75 -2.590215e+001 1.344154e+002 -9.745566e+000 -5.660605e+000 -6.775806e+002 8.999393e+001 -6.808807e+002 8.999111e+001
332484.375 -2.616085e+001 1.332204e+002 -9.808326e+000 -5.895781e+000 -6.775806e+002 8.999393e+001 -6.808807e+002 8.999111e+001
337125 -2.619242e+001 1.331944e+002 -9.827569e+000 -6.040401e+000 -6.775806e+002 8.999393e+001 -6.808807e+002 8.999111e+001
341765.625 -2.619402e+001 1.340289e+002 -9.779807e+000 -6.333347e+000 -6.775806e+002 8.999393e+001 -6.808807e+002 8.999111e+001
346406.25 -2.628583e+001 1.331147e+002 -9.766397e+000 -6.542155e+000 -6.775806e+002 8.999393e+001 -6.808807e+002 8.999111e+001
351046.875 -2.628686e+001 1.330907e+002 -9.783562e+000 -6.539741e+000 -6.775806e+002 8.999393e+001 -6.808807e+002 8.999111e+001
355687.5 -2.645659e+001 1.340602e+002 -9.812673e+000 -6.597944e+000 -6.775806e+002 8.999393e+001 -6.808807e+002 8.999111e+001
360328.125 -2.656821e+001 1.344717e+002 -9.810596e+000 -6.702768e+000 -6.775806e+002 8.999393e+001 -6.808807e+002 8.999111e+001
364968.75 -2.665573e+001 1.334324e+002 -9.797759e+000 -6.947884e+000 -6.775806e+002 8.999393e+001 -6.808807e+002 8.999111e+001
369609.375 -2.675600e+001 1.338674e+002 -9.772404e+000 -7.105327e+000 -6.775806e+002 8.999393e+001 -6.808807e+002 8.999111e+001
374250 -2.668847e+001 1.353769e+002 -9.786541e+000 -7.025589e+000 -6.775806e+002 8.999393e+001 -6.808807e+002 8.999111e+001
378890.625 -2.697572e+001 1.335626e+002 -9.819416e+000 -7.162089e+000 -6.775806e+002 8.999393e+001 -6.808807e+002 8.999111e+001
383531.25 -2.670930e+001 1.345196e+002 -9.770758e+000 -7.411909e+000 -6.775806e+002 8.999393e+001 -6.808807e+002 8.999111e+001
388171.875 -2.699375e+001 1.346039e+002 -9.793677e+000 -7.432568e+000 -6.775806e+002 8.999393e+001 -6.808807e+002 8.999111e+001
392812.5 -2.700762e+001 1.338727e+002 -9.796520e+000 -7.697362e+000 -6.775806e+002 8.999393e+001 -6.808807e+002 8.999111e+001
397453.125 -2.711464e+001 1.335206e+002 -9.812847e+000 -7.770452e+000 -6.775806e+002 8.999393e+001 -6.808807e+002 8.999111e+001
402093.75 -2.712335e+001 1.329315e+002 -9.788014e+000 -8.117982e+000 -6.775806e+002 8.999393e+001 -6.808807e+002 8.999111e+001
406734.375 -2.726403e+001 1.343301e+002 -9.786925e+000 -7.920542e+000 -6.775806e+002 8.999393e+001 -6.808807e+002 8.999111e+001
411375 -2.730099e+001 1.340413e+002 -9.800254e+000 -8.054240e+000 -6.775806e+002 8.999393e+001 -6.808807e+002 8.999111e+001
416015.625 -2.740185e+001 1.345403e+002 -9.804806e+000 -8.331318e+000 -6.775806e+002 8.999393e+001 -6.808807e+002 8.999111e+001
420656.25 -2.749677e+001 1.341272e+002 -9.761769e+000 -8.424138e+000 -6.775806e+002 8.999393e+001 -6.808807e+002 8.999111e+001
425296.875 -2.729670e+001 1.337378e+002 -9.774693e+000 -8.619588e+000 -6.775806e+002 8.999393e+001 -6.808807e+002 8.999111e+001
429937.5 -2.745326e+001 1.347645e+002 -9.787974e+000 -8.691588e+000 -6.775806e+002 8.999393e+001 -6.808807e+002 8.999111e+001
434578.125 -2.751838e+001 1.344073e+002 -9.787126e+000 -8.949717e+000 -6.775806e+002 8.999393e+001 -6.808807e+002 8.999111e+001
439218.75 -2.768434e+001 1.339901e+002 -9.742912e+000 -8.984108e+000 -6.775806e+002 8.999393e+001 -6.808807e+002 8.999111e+001
443859.375 -2.774658e+001 1.341225e+002 -9.742252e+000 -9.287340e+000 -6.775806e+002 8.999393e+001 -6.808807e+002 8.999111e+001
448500 -2.774986e+001 1.332292e+002 -9.738804e+000 -9.288314e+000 -6.775806e+002 8.999393e+001 -6.808807e+002 8.999111e+001
453140.625 -2.783818e+001 1.337083e+002 -9.772559e+000 -9.393309e+000 -6.775806e+002 8.999393e+001 -6.808807e+002 8.999111e+001
457781.25 -2.786265e+001 1.331198e+002 -9.762538e+000 -9.689320e+000 -6.775806e+002 8.999393e+001 -6.808807e+002 8.999111e+001
462421.875 -2.783600e+001 1.335266e+002 -9.781988e+000 -9.776660e+000 -6.775806e+002 8.999393e+001 -6.808807e+002 8.999111e+001
467062.5 -2.798203e+001 1.328248e+002 -9.763543e+000 -9.904718e+000 -6.775806e+002 8.999393e+001 -6.808807e+002 8.999111e+001
471703.125 -2.788179e+001 1.330042e+002 -9.809160e+000 -1.004152e+001 -6.775806e+002 8.999393e+001 -6.808807e+002 8.999111e+001
476343.75 -2.802270e+001 1.331026e+002 -9.800651e+000 -1.007860e+001 -6.775806e+002 8.999393e+001 -6.808807e+002 8.999111e+001
480984.375 -2.812539e+001 1.330580e+002 -9.838529e+000 -1.032424e+001 -6.775806e+002 8.999393e+001 -6.808807e+002 8.999111e+001
485625 -2.822373e+001 1.337233e+002 -9.809196e+000 -1.042152e+001 -6.775806e+002 8.999393e+001 -6.808807e+002 8.999111e+001
490265.625 -2.825383e+001 1.331815e+002 -9.813711e+000 -1.052041e+001 -6.775806e+002 8.999393e+001 -6.808807e+002 8.999111e+001
494906.25 -2.834246e+001 1.326827e+002 -9.817469e+000 -1.070234e+001 -6.775806e+002 8.999393e+001 -6.808807e+002 8.999111e+001
499546.875 -2.826139e+001 1.332758e+002 -9.808600e+000 -1.072108e+001 -6.775806e+002 8.999393e+001 -6.808807e+002 8.999111e+001
504187.5 -2.839447e+001 1.327640e+002 -9.773497e+000 -1.092545e+001 -6.775806e+002 8.999393e+001 -6.808807e+002 8.999111e+001
508828.125 -2.844485e+001 1.318452e+002 -9.805530e+000 -1.102376e+001 -6.775806e+002 8.999393e+001 -6.808807e+002 8.999111e+001
513468.75 -2.849651e+001 1.338202e+002 -9.821576e+000 -1.122467e+001 -6.775806e+002 8.999393e+001 -6.808807e+002 8.999111e+001
518109.375 -2.853660e+001 1.321539e+002 -9.807015e+000 -1.126229e+001 -6.775806e+002 8.999393e+001 -6.808807e+002 8.999111e+001
522750 -2.857346e+001 1.326540e+002 -9.827950e+000 -1.139092e+001 -6.775806e+002 8.999393e+001 -6.808807e+002 8.999111e+001
527390.625 -2.877503e+001 1.325551e+002 -9.818119e+000 -1.135147e+001 -6.775806e+002 8.999393e+001 -6.808807e+002 8.999111e+001
532031.25 -2.871614e+001 1.328002e+002 -9.834366e+000 -1.168512e+001 -6.775806e+002 8.999393e+001 -6.808807e+002 8.999111e+001
536671.875 -2.866201e+001 1.328398e+002 -9.830720e+000 -1.158752e+001 -6.775806e+002 8.999393e+001 -6.808807e+002 8.999111e+001
541312.5 -2.871090e+001 1.332158e+002 -9.826839e+000 -1.174886e+001 -6.775806e+002 8.999393e+001 -6.808807e+002 8.999111e+001
545953.125 -2.886556e+001 1.335302e+002 -9.828931e+000 -1.190156e+001 -6.775806e+002 8.999393e+001 -6.808807e+002 8.999111e+001
550593.75 -2.897773e+001 1.326918e+002 -9.822206e+000 -1.196987e+001 -6.775806e+002 8.999393e+001 -6.808807e+002 8.999111e+001
555234.375 -2.892819e+001 1.327401e+002 -9.826323e+000 -1.203822e+001 -6.775806e+002 8.999393e+001 -6.808807e+002 8.999111e+001
559875 -2.902106e+001 1.326646e+002 -9.818538e+000 -1.216671e+001 -6.775806e+002 8.999393e+001 -6.808807e+002 8.999111e+001
564515.625 -2.911887e+001 1.330997e+002 -9.788383e+000 -1.216428e+001 -6.775806e+002 8.999393e+001 -6.808807e+002 8.999111e+001
569156.25 -2.911819e+001 1.331261e+002 -9.809031e+000 -1.223804e+001 -6.775806e+002 8.999393e+001 -6.808807e+002 8.999111e+001
573796.875 -2.925471e+001 1.335512e+002 -9.837483e+000 -1.239290e+001 -6.775806e+002 8.999393e+001 -6.808807e+002 8.999111e+001
578437.5 -2.940499e+001 1.338826e+002 -9.808523e+000 -1.237352e+001 -6.775806e+002 8.999393e+001 -6.808807e+002 8.999111e+001
583078.125 -2.932940e+001 1.331746e+002 -9.822438e+000 -1.258268e+001 -6.775806e+002 8.999393e+001 -6.808807e+002 8.999111e+001
587718.75 -2.930908e+001 1.346825e+002 -9.803812e+000 -1.261340e+001 -6.775806e+002 8.999393e+001 -6.808807e+002 8.999111e+001
592359.375 -2.957110e+001 1.340570e+002 -9.785235e+000 -1.266407e+001 -6.775806e+002 8.999393e+001 -6.808807e+002 8.999111e+001
597000 -2.956730e+001 1.339692e+002 -9.764211e+000 -1.278196e+001 -6.775806e+002 8.999393e+001 -6.808807e+002 8.999111e+001
601640.625 -2.965923e+001 1.351455e+002 -9.807909e+000 -1.286726e+001 -6.775806e+002 8.999393e+001 -6.808807e+002 8.999111e+001
606281.25 -2.956595e+001 1.351623e+002 -9.740134e+000 -1.307342e+001 -6.775806e+002 8.999393e+001 -6.808807e+002 8.999111e+001
610921.875 -2.965460e+001 1.349252e+002 -9.740655e+000 -1.317306e+001 -6.775806e+002 8.999393e+001 -6.808807e+002 8.999111e+001
615562.5 -2.981788e+001 1.349910e+002 -9.758492e+000 -1.336161e+001 -6.775806e+002 8.999393e+001 -6.808807e+002 8.999111e+001
620203.125 -2.983074e+001 1.363240e+002 -9.719634e+000 -1.357803e+001 -6.775806e+002 8.999393e+001 -6.808807e+002 8.999111e+001
624843.75 -2.979646e+001 1.364039e+002 -9.726414e+000 -1.376981e+001 -6.775806e+002 8.999393e+001 -6.808807e+002 8.999111e+001
629484.375 -2.979745e+001 1.369887e+002 -9.707336e+000 -1.398034e+001 -6.775806e+002 8.999393e+001 -6.808807e+002 8.999111e+001
634125 -2.996995e+001 1.364756e+002 -9.730382e+000 -1.414352e+001 -6.775806e+002 8.999393e+001 -6.808807e+002 8.999111e+001
638765.625 -2.987983e+001 1.363503e+002 -9.716300e+000 -1.434692e+001 -6.775806e+002 8.999393e+001 -6.808807e+002 8.999111e+001
643406.25 -3.001563e+001 1.370148e+002 -9.710560e+000 -1.456206e+001 -6.775806e+002 8.999393e+001 -6.808807e+002 8.999111e+001
648046.875 -2.995928e+001 1.372676e+002 -9.717671e+000 -1.463082e+001 -6.775806e+002 8.999393e+001 -6.808807e+002 8.999111e+001
652687.5 -3.001477e+001 1.382449e+002 -9.714856e+000 -1.493226e+001 -6.775806e+002 8.999393e+001 -6.808807e+002 8.999111e+001
657328.125 -2.985939e+001 1.372153e+002 -9.727016e+000 -1.510992e+001 -6.775806e+002 8.999393e+001 -6.808807e+002 8.999111e+001
661968.75 -3.005383e+001 1.385398e+002 -9.727543e+000 -1.532315e+001 -6.775806e+002 8.999393e+001 -6.808807e+002 8.999111e+001
666609.375 -3.009831e+001 1.384262e+002 -9.708727e+000 -1.545427e+001 -6.775806e+002 8.999393e+001 -6.808807e+002 8.999111e+001
671250 -3.017600e+001 1.386651e+002 -9.724833e+000 -1.548318e+001 -6.775806e+002 8.999393e+001 -6.808807e+002 8.999111e+001
675890.625 -2.997938e+001 1.378655e+002 -9.711102e+000 -1.568249e+001 -6.775806e+002 8.999393e+001 -6.808807e+002 8.999111e+001
680531.25 -3.010919e+001 1.380100e+002 -9.763448e+000 -1.574216e+001 -6.775806e+002 8.999393e+001 -6.808807e+002 8.999111e+001
685171.875 -3.019591e+001 1.375590e+002 -9.766601e+000 -1.586455e+001 -6.775806e+002 8.999393e+001 -6.808807e+002 8.999111e+001
689812.5 -3.013369e+001 1.383445e+002 -9.766457e+000 -1.593120e+001 -6.775806e+002 8.999393e+001 -6.808807e+002 8.999111e+001
694453.125 -3.018554e+001 1.378444e+002 -9.777675e+000 -1.608258e+001 -6.775806e+002 8.999393e+001 -6.808807e+002 8.999111e+001
699093.75 -3.033172e+001 1.380152e+002 -9.766041e+000 -1.625177e+001 -6.775806e+002 8.999393e+001 -6.808807e+002 8.999111e+001
703734.375 -3.026015e+001 1.378920e+002 -9.760116e+000 -1.636027e+001 -6.775806e+002 8.999393e+001 -6.808807e+002 8.999111e+001
708375 -3.015158e+001 1.392285e+002 -9.789659e+000 -1.641694e+001 -6.775806e+002 8.999393e+001 -6.808807e+002 8.999111e+001
713015.625 -3.035580e+001 1.396051e+002 -9.804058e+000 -1.661794e+001 -6.775806e+002 8.999393e+001 -6.808807e+002 8.999111e+001
717656.25 -3.046302e+001 1.389851e+002 -9.783332e+000 -1.667422e+001 -6.775806e+002 8.999393e+001 -6.808807e+002 8.999111e+001
722296.875 -3.048279e+001 1.381620e+002 -9.781708e+000 -1.670575e+001 -6.775806e+002 8.999393e+001 -6.808807e+002 8.999111e+001
726937.5 -3.046348e+001 1.390528e+002 -9.806525e+000 -1.688118e+001 -6.775806e+002 8.999393e+001 -6.808807e+002 8.999111e+001
731578.125 -3.044498e+001 1.378709e+002 -9.800125e+000 -1.693530e+001 -6.775806e+002 8.999393e+001 -6.808807e+002 8.999111e+001
736218.75 -3.045682e+001 1.398001e+002 -9.788239e+000 -1.701831e+001 -6.775806e+002 8.999393e+001 -6.808807e+002 8.999111e+001
740859.375 -3.052610e+001 1.391600e+002 -9.787006e+000 -1.714956e+001 -6.775806e+002 8.999393e+001 -6.808807e+002 8.999111e+001
745500 -3.060177e+001 1.390033e+002 -9.806531e+000 -1.721616e+001 -6.775806e+002 8.999393e+001 -6.808807e+002 8.999111e+001
750140.625 -3.056124e+001 1.385338e+002 -9.792364e+000 -1.726810e+001 -6.775806e+002 8.999393e+001 -6.808807e+002 8.999111e+001
754781.25 -3.083780e+001 1.408579e+002 -9.814759e+000 -1.744850e+001 -6.775806e+002 8.999393e+001 -6.808807e+002 8.999111e+001
759421.875 -3.065855e+001 1.397546e+002 -9.815001e+000 -1.754830e+001 -6.775806e+002 8.999393e+001 -6.808807e+002 8.999111e+001
764062.5 -3.081782e+001 1.403636e+002 -9.809365e+000 -1.760969e+001 -6.775806e+002 8.999393e+001 -6.808807e+002 8.999111e+001
768703.125 -3.084259e+001 1.398685e+002 -9.773359e+000 -1.761083e+001 -6.775806e+002 8.999393e+001 -6.808807e+002 8.999111e+001
773343.75 -3.085798e+001 1.390783e+002 -9.786460e+000 -1.764146e+001 -6.775806e+002 8.999393e+001 -6.808807e+002 8.999111e+001
777984.375 -3.087715e+001 1.398195e+002 -9.791751e+000 -1.792615e+001 -6.775806e+002 8.999393e+001 -6.808807e+002 8.999111e+001
782625 -3.098894e+001 1.389719e+002 -9.809972e+000 -1.806071e+001 -6.775806e+002 8.999393e+001 -6.808807e+002 8.999111e+001
787265.625 -3.110697e+001 1.403031e+002 -9.799804e+000 -1.813126e+001 -6.775806e+002 8.999393e+001 -6.808807e+002 8.999111e+001
791906.25 -3.101603e+001 1.410010e+002 -9.784891e+000 -1.810709e+001 -6.775806e+002 8.999393e+001 -6.808807e+002 8.999111e+001
796546.875 -3.109650e+001 1.403303e+002 -9.802510e+000 -1.840579e+001 -6.775806e+002 8.999393e+001 -6.808807e+002 8.999111e+001
801187.5 -3.109544e+001 1.400155e+002 -9.806227e+000 -1.844546e+001 -6.775806e+002 8.999393e+001 -6.808807e+002 8.999111e+001
805828.125 -3.112856e+001 1.397021e+002 -9.778599e+000 -1.852842e+001 -6.775806e+002 8.999393e+001 -6.808807e+002 8.999111e+001
810468.75 -3.112602e+001 1.402547e+002 -9.804649e+000 -1.863460e+001 -6.775806e+002 8.999393e+001 -6.808807e+002 8.999111e+001
815109.375 -3.123949e+001 1.401618e+002 -9.761916e+000 -1.874846e+001 -6.775806e+002 8.999393e+001 -6.808807e+002 8.999111e+001
819750 -3.141162e+001 1.408855e+002 -9.794518e+000 -1.875004e+001 -6.775806e+002 8.999393e+001 -6.808807e+002 8.999111e+001
824390.625 -3.132567e+001 1.407625e+002 -9.796321e+000 -1.898753e+001 -6.775806e+002 8.999393e+001 -6.808807e+002 8.999111e+001
829031.25 -3.114419e+001 1.417792e+002 -9.768557e+000 -1.924698e+001 -6.775806e+002 8.999393e+001 -6.808807e+002 8.999111e+001
833671.875 -3.129418e+001 1.414318e+002 -9.773300e+000 -1.929659e+001 -6.775806e+002 8.999393e+001 -6.808807e+002 8.999111e+001
838312.5 -3.147166e+001 1.411751e+002 -9.765014e+000 -1.938549e+001 -6.775806e+002 8.999393e+001 -6.808807e+002 8.999111e+001
842953.125 -3.133888e+001 1.426146e+002 -9.756610e+000 -1.944569e+001 -6.775806e+002 8.999393e+001 -6.808807e+002 8.999111e+001
847593.75 -3.137115e+001 1.424367e+002 -9.784022e+000 -1.972377e+001 -6.775806e+002 8.999393e+001 -6.808807e+002 8.999111e+001
852234.375 -3.138635e+001 1.428291e+002 -9.757557e+000 -1.988608e+001 -6.775806e+002 8.999393e+001 -6.808807e+002 8.999111e+001
856875 -3.135206e+001 1.410387e+002 -9.791094e+000 -1.986658e+001 -6.775806e+002 8.999393e+001 -6.808807e+002 8.999111e+001
861515.625 -3.141405e+001 1.418208e+002 -9.777656e+000 -1.998608e+001 -6.775806e+002 8.999393e+001 -6.808807e+002 8.999111e+001
866156.25 -3.139241e+001 1.413900e+002 -9.773995e+000 -2.006390e+001 -6.775806e+002 8.999393e+001 -6.808807e+002 8.999111e+001
870796.875 -3.150821e+001 1.423146e+002 -9.772455e+000 -2.012262e+001 -6.775806e+002 8.999393e+001 -6.808807e+002 8.999111e+001
875437.5 -3.157016e+001 1.425237e+002 -9.776157e+000 -2.026148e+001 -6.775806e+002 8.999393e+001 -6.808807e+002 8.999111e+001
880078.125 -3.145926e+001 1.429515e+002 -9.756904e+000 -2.053536e+001 -6.775806e+002 8.999393e+001 -6.808807e+002 8.999111e+001
884718.75 -3.155454e+001 1.426653e+002 -9.767749e+000 -2.066168e+001 -6.775806e+002 8.999393e+001 -6.808807e+002 8.999111e+001
889359.375 -3.154491e+001 1.431143e+002 -9.766679e+000 -2.068175e+001 -6.775806e+002 8.999393e+001 -6.808807e+002 8.999111e+001
894000 -3.173396e+001 1.425036e+002 -9.760566e+000 -2.081583e+001 -6.775806e+002 8.999393e+001 -6.808807e+002 8.999111e+001
898640.625 -3.172845e+001 1.415693e+002 -9.766609e+000 -2.090568e+001 -6.775806e+002 8.999393e+001 -6.808807e+002 8.999111e+001
903281.25 -3.169452e+001 1.448346e+002 -9.779214e+000 -2.104665e+001 -6.775806e+002 8.999393e+001 -6.808807e+002 8.999111e+001
907921.875 -3.189002e+001 1.443025e+002 -9.750341e+000 -2.108990e+001 -6.775806e+002 8.999393e+001 -6.808807e+002 8.999111e+001
912562.5 -3.177759e+001 1.455317e+002 -9.729874e+000 -2.114271e+001 -6.775806e+002 8.999393e+001 -6.808807e+002 8.999111e+001
917203.125 -3.175716e+001 1.451528e+002 -9.750427e+000 -2.122569e+001 -6.775806e+002 8.999393e+001 -6.808807e+002 8.999111e+001
921843.75 -3.178646e+001 1.454848e+002 -9.706913e+000 -2.146648e+001 -6.775806e+002 8.999393e+001 -6.808807e+002 8.999111e+001
926484.375 -3.185013e+001 1.453064e+002 -9.746287e+000 -2.153748e+001 -6.775806e+002 8.999393e+001 -6.808807e+002 8.999111e+001
931125 -3.184613e+001 1.445535e+002 -9.737864e+000 -2.160228e+001 -6.775806e+002 8.999393e+001 -6.808807e+002 8.999111e+001
935765.625 -3.176040e+001 1.453811e+002 -9.729354e+000 -2.167504e+001 -6.775806e+002 8.999393e+001 -6.808807e+002 8.999111e+001
940406.25 -3.199138e+001 1.449559e+002 -9.757179e+000 -2.182810e+001 -6.775806e+002 8.999393e+001 -6.808807e+002 8.999111e+001
945046.875 -3.191491e+001 1.439272e+002 -9.738988e+000 -2.192678e+001 -6.775806e+002 8.999393e+001 -6.808807e+002 8.999111e+001
949687.5 -3.197847e+001 1.455860e+002 -9.726756e+000 -2.206095e+001 -6.775806e+002 8.999393e+001 -6.808807e+002 8.999111e+001
954328.125 -3.197253e+001 1.445646e+002 -9.732251e+000 -2.218011e+001 -6.775806e+002 8.999393e+001 -6.808807e+002 8.999111e+001
958968.75 -3.177529e+001 1.470419e+002 -9.745348e+000 -2.235877e+001 -6.775806e+002 8.999393e+001 -6.808807e+002 8.999111e+001
963609.375 -3.195211e+001 1.459373e+002 -9.724918e+000 -2.242631e+001 -6.775806e+002 8.999393e+001 -6.808807e+002 8.999111e+001
968250 -3.198678e+001 1.464133e+002 -9.693182e+000 -2.254638e+001 -6.775806e+002 8.999393e+001 -6.808807e+002 8.999111e+001
972890.625 -3.209064e+001 1.463832e+002 -9.710706e+000 -2.273256e+001 -6.775806e+002 8.999393e+001 -6.808807e+002 8.999111e+001
977531.25 -3.211992e+001 1.462032e+002 -9.715073e+000 -2.275492e+001 -6.775806e+002 8.999393e+001 -6.808807e+002 8.999111e+001
982171.875 -3.184279e+001 1.448588e+002 -9.711977e+000 -2.285772e+001 -6.775806e+002 8.999393e+001 -6.808807e+002 8.999111e+001
986812.5 -3.203118e+001 1.466121e+002 -9.727508e+000 -2.303045e+001 -6.775806e+002 8.999393e+001 -6.808807e+002 8.999111e+001
991453.125 -3.187319e+001 1.468917e+002 -9.731587e+000 -2.319788e+001 -6.775806e+002 8.999393e+001 -6.808807e+002 8.999111e+001
996093.75 -3.207512e+001 1.475374e+002 -9.740601e+000 -2.324591e+001 -6.775806e+002 8.999393e+001 -6.808807e+002 8.999111e+001
1000734.375 -3.202740e+001 1.470321e+002 -9.722059e+000 -2.331505e+001 -6.775806e+002 8.999393e+001 -6.808807e+002 8.999111e+001
1005375 -3.227047e+001 1.469884e+002 -9.724378e+000 -2.349592e+001 -6.775806e+002 8.999393e+001 -6.808807e+002 8.999111e+001
1010015.625 -3.235534e+001 1.469401e+002 -9.695983e+000 -2.358776e+001 -6.775806e+002 8.999393e+001 -6.808807e+002 8.999111e+001
1014656.25 -3.222345e+001 1.477062e+002 -9.723133e+000 -2.377405e+001 -6.775806e+002 8.999393e+001 -6.808807e+002 8.999111e+001
