!Created with skrf (http://scikit-rf.org).
# Hz S RI R 50.0 
!freq ReS11 ImS11 ReS21 ImS21 ReS12 ImS12 ReS22 ImS22
0.0 -0.2005209458103192 2.455673344486073e-17 -0.04713019919034274 5.771784758163041e-18 5.337748255080276e-14 0.0 -0.2005252782144629 2.455726401134744e-17
40000.0 -0.02526862894551951 0.09626528022520779 -0.08100955551419103 -0.01655731135157766 -2.001376581749252e-14 -4.092123324953251e-15 -0.02527603819597057 0.09626357504999448
80000.0 -0.01409058401076713 0.05079961019495698 -0.08353379645005221 -0.008762434440572522 -8.255028353368061e-14 -8.66836039770917e-15 -0.0140982231750274 0.05079842695625759
120000.0 -0.01235254744271541 0.03716422824701136 -0.08394986885256078 -0.006355729417274224 -1.86664240119e-13 -1.416049681801807e-14 -0.01236022147032301 0.03716307454934743
160000.0 -0.01164616272671659 0.02933391770648318 -0.08412342858247651 -0.004958591996344448 -3.325354333069083e-13 -1.96660314628244e-14 -0.01165385112262196 0.02933270108202764
200000.0 -0.0109194791549535 0.02152378632954435 -0.0842847050075708 -0.003573528528235659 -5.205863933450588e-13 -2.21961322593224e-14 -0.01092718701313755 0.02152250505743123
240000.0 -0.01066518520094051 0.01891436251237921 -0.08433898236281426 -0.003079251079982355 -7.501243939930535e-13 -2.760114102366952e-14 -0.01067289690375006 0.01891293547520043
280000.0 -0.01040911517177479 0.01630577665256071 -0.08439203454394895 -0.002585661312185733 -1.021641719295685e-12 -3.164044485516868e-14 -0.01041683286700745 0.01630420361286688
320000.0 -0.01019148002983216 0.01436045072302563 -0.08443496853854518 -0.002201106008708484 -1.335065585643042e-12 -3.530830747930691e-14 -0.0101992030788125 0.0143587216594095
360000.0 -0.01001360064407575 0.01307771100235742 -0.08446830740595561 -0.001925082318344249 -1.690358293821694e-12 -3.924280687553165e-14 -0.01002132772325914 0.01307581600423753
400000.0 -0.009835760948126325 0.01179511747022108 -0.0845011112828454 -0.001649134288002591 -2.08767173992622e-12 -4.172842627393975e-14 -0.009843493280557558 0.01179305646644487
440000.0 -0.009696102133182725 0.01103114455895859 -0.08452419275273369 -0.001475359104690829 -2.526774582775166e-12 -4.541903767125768e-14 -0.009703837558153848 0.01102890832619463
480000.0 -0.00955646319448611 0.01026732039178196 -0.08454713593206656 -0.00130159535840912 -3.0078896955732e-12 -4.801652405937448e-14 -0.009564202502790662 0.01026490891659455
520000.0 -0.00939304094199622 0.009637819966908703 -0.08457543442844859 -0.001150238169246846 -3.531276429238701e-12 -5.01989727265246e-14 -0.009400784769171498 0.009635231025192533
560000.0 -0.009205855217632506 0.009142519997609747 -0.08460911034944546 -0.001021242327355179 -4.097076401284972e-12 -5.215829178103709e-14 -0.009213604046289015 0.00913975133953809
600000.0 -0.009018719362305803 0.008647208040454931 -0.08464267663923007 -0.0008921987974899303 -4.7051443017784e-12 -5.291571117130515e-14 -0.009026473771055366 0.008644259631084594
640000.0 -0.008862371317429396 0.0082482977625815 -0.08466966580113035 -0.0007863517624484333 -5.35513386860568e-12 -5.376765502178854e-14 -0.008870130440670532 0.008245167661792155
680000.0 -0.008706107540067176 0.007849383417995298 -0.08469656922983172 -0.0006804816879122987 -6.047386517530192e-12 -5.342855000526313e-14 -0.008713871841468768 0.0078460716293583
720000.0 -0.008551409075516216 0.007499963530352275 -0.08472261447967867 -0.0005870071649070073 -6.781867217021126e-12 -5.273914412263013e-14 -0.00855917843727805 0.007496468956263064
760000.0 -0.008398230388578677 0.007200045977835269 -0.08474782646078392 -0.000505941645074751 -7.558591162151807e-12 -5.188882745339648e-14 -0.008406004604107564 0.007196367529912841
800000.0 -0.00824507575144451 0.00690013526072713 -0.0847729857926838 -0.0004248712108105346 -8.377660793751285e-12 -4.987849928226559e-14 -0.008252855155736925 0.006896272964490941
840000.0 -0.008139220993512386 0.006641743725563773 -0.0847914646311561 -0.0003380537080117995 -9.238382214457744e-12 -4.597337370652841e-14 -0.00814700557753223 0.00663769845417815
880000.0 -0.008033430520323681 0.006383370046723558 -0.08480988090166411 -0.0002512135646367109 -1.014137801299372e-11 -4.055657673568658e-14 -0.008041220631244907 0.006379141867232505
920000.0 -0.007925616533822177 0.00613096093169043 -0.0848292173854776 -0.0001573397817230035 -1.108681257602852e-11 -3.258436766287858e-14 -0.007933412961904753 0.006126550509336998
960000.0 -0.007815818570218624 0.005884465016030842 -0.08484943578165446 -5.643151244558916e-05 -1.207474286306905e-11 -2.168801851693921e-14 -0.007823622142474564 0.005879873015514797
1000000.0 -0.007706137805026603 0.00563791862790584 -0.08486954046510796 4.450034128083605e-05 -1.310506701956343e-11 -8.565254720699126e-15 -0.007713948903229183 0.005633145122301893
1040000.0 -0.007614919436926048 0.005431808535483046 -0.08488569893993185 0.0001159685986253807 -1.417713615444325e-11 1.994225360697788e-15 -0.007622736360378578 0.005426851117463601
1080000.0 -0.007523742388704012 0.005225679758523596 -0.08490180853613735 0.0001874497107946004 -1.529155720609287e-11 1.429397647975868e-14 -0.007531565377354665 0.005220538520162111
1120000.0 -0.007432606643247741 0.005019532356215489 -0.08491786924468528 0.000258943648029252 -1.644835252060186e-11 2.843443315019803e-14 -0.00744043592927779 0.005014207391812132
1160000.0 -0.00734151218503254 0.004813366389303491 -0.08493388106019266 0.0003304503804456207 -1.764754433020777e-11 4.451606368287577e-14 -0.007349347992709587 0.004807857794987476
1200000.0 -0.007250459000288755 0.004607181920059979 -0.08494984397519617 0.0004019698779622566 -1.888915475231966e-11 6.263936973209984e-14 -0.007258301545795765 0.004601489793393033
1240000.0 -0.007178089037661373 0.004455602696433992 -0.08496333369339709 0.0004706306051085176 -2.017266832793344e-11 8.22484014620695e-14 -0.007185938104788068 0.004449727033146569
1280000.0 -0.007105755700907325 0.004304008904733958 -0.08497676934360682 0.0005392996300359696 -2.149857257395896e-11 1.040130716280037e-13 -0.007113611476024849 0.004297949814316145
1320000.0 -0.007033458948137672 0.004152400631590949 -0.08499015092950205 0.0006079769138756904 -2.286688565808744e-11 1.280296740561118e-13 -0.007041321610250839 0.004146158223813192
1360000.0 -0.006961198739820817 0.004000777965327309 -0.08500347843457683 0.0006766624172246527 -2.427762561408929e-11 1.543945206564005e-13 -0.006969068459547367 0.003994352349867321
1400000.0 -0.006888975038301769 0.003849140995904609 -0.08501675185758285 0.0007453561008821886 -2.573081035149228e-11 1.832039409528667e-13 -0.006896851978255513 0.003842532281971094
1440000.0 -0.006841000572332613 0.003717832386765557 -0.0850180176529104 0.0008030597617726445 -2.722258530495613e-11 2.110214511343269e-13 -0.006848882902791287 0.003711040642123065
1480000.0 -0.006793041844706748 0.003586533743457161 -0.08501924236242263 0.000860760668075659 -2.875640817080471e-11 2.41075137407447e-13 -0.006800929665343625 0.00357955912669687
1520000.0 -0.006745098825341689 0.003455245148273253 -0.08502042597817361 0.0009184587839278086 -3.033227918724392e-11 2.734445168847681e-13 -0.00675299222816872 0.003448087816347429
1560000.0 -0.006697171485995245 0.003323966685240241 -0.08502156850673463 0.0009761540736996723 -3.195019850261147e-11 3.082090964793663e-13 -0.006705070556106807 0.003316626793120126
1600000.0 -0.006649259800354357 0.003192698440061481 -0.08502266993409689 0.001033846501001077 -3.361016616425786e-11 3.454483721973535e-13 -0.006657164615089473 0.003185176140421978
1640000.0 -0.006610225150288417 0.003064643192109704 -0.08502724880143493 0.00109835360072165 -3.53136734398853e-11 3.880543158908588e-13 -0.006618136727750468 0.003056938936028636
1680000.0 -0.006571219612139467 0.002936576673153964 -0.08503177742908213 0.00116286264809459 -3.705937197175713e-11 4.335732846166105e-13 -0.00657913804541288 0.002928690593216978
1720000.0 -0.006532243169081298 0.002808498940956318 -0.08503625582547848 0.001227373599007799 -3.884726624895403e-11 4.820950187273737e-13 -0.006540168544488134 0.00280043116659378
1760000.0 -0.006493295805130916 0.002680410054043528 -0.0850406839834697 0.00129188640858075 -4.067736063122245e-11 5.337092576397483e-13 -0.006501228202512644 0.002672160711254378
1800000.0 -0.006454377505433095 0.002552310071670096 -0.08504506192184444 0.001356401032552263 -4.254965936761665e-11 5.885057400583072e-13 -0.006462316998762763 0.002543879282759376
1840000.0 -0.006428908225918351 0.002432178273825152 -0.08504976402043513 0.001420742020901579 -4.446432126994464e-11 6.46469927095794e-13 -0.006436854892930332 0.002423566109654816
1880000.0 -0.006403465724190372 0.002312040199310621 -0.08505441014818199 0.00148508572528364 -4.642120618211888e-11 7.077879878674938e-13 -0.006411419624959946 0.00230324677347338
1920000.0 -0.006378049975562239 0.002191895918767441 -0.08505900029586154 0.001549432088232677 -4.842031802114598e-11 7.725495194651526e-13 -0.006386011165175232 0.002182921340516616
1960000.0 -0.006352660955784239 0.00207174550383739 -0.08506353445177663 0.001613781052027572 -5.046166056511847e-11 8.408441216760019e-13 -0.006360629484307045 0.002062589877885154
2000000.0 -0.006327298642326729 0.00195158902712313 -0.08506801263716063 0.001678132560212055 -5.254523747141642e-11 9.127613973936143e-13 -0.006335274554018611 0.001942252453464681
2040000.0 -0.006300797553956295 0.001863264676767962 -0.0850749025975339 0.001726082681427064 -5.467263073435132e-11 9.778228372022988e-13 -0.006308779251518514 0.001853745464901198
2080000.0 -0.006274302985764924 0.001774936732912284 -0.08508175877462758 0.001774037975949317 -5.684240316067773e-11 1.045849723685951e-12 -0.006282290435458804 0.00176523496129978
2120000.0 -0.006247814943672436 0.001686605232625941 -0.08508858115534333 0.001821998411291235 -5.90545631062863e-11 1.116907376796304e-12 -0.006255808107057836 0.001676720974559533
2160000.0 -0.006221333433809373 0.0015982702131131 -0.08509536972076287 0.001869963954593817 -6.130911883883215e-11 1.191061123243028e-12 -0.006229332268727128 0.001588203536597765
2200000.0 -0.006194858462588826 0.001509931711696085 -0.08510212448300467 0.001917934574397894 -6.360607856347052e-11 1.268376297189962e-12 -0.006202862923529451 0.001499682679335152
2240000.0 -0.006173947182763428 0.001434599643757636 -0.08509963858240126 0.0019710840061775 -6.593823635065063e-11 1.353151969012648e-12 -0.006181957044938069 0.001424169945826182
2280000.0 -0.006153045093440945 0.001359266204828835 -0.08509710739856516 0.002024229314622481 -6.831228786092303e-11 1.441519727975648e-12 -0.006161060327197654 0.001348655933198762
2320000.0 -0.006132152183237038 0.001283931571877821 -0.08509453094391901 0.002077370455095693 -7.072822656255643e-11 1.533552457676983e-12 -0.006140172756258112 0.001273140812778608
2360000.0 -0.006111268444160435 0.001208595923472676 -0.08509190922595067 0.002130507382834343 -7.318604581392956e-11 1.629323025791324e-12 -0.006119294321427438 0.001197624757449136
2400000.0 -0.006090393872128064 0.001133259439673447 -0.08508924225975864 0.002183640053627054 -7.568573887914464e-11 1.72890428470473e-12 -0.006098425016511699 0.001122107941548874
2440000.0 -0.006084318285223266 0.001047124366367528 -0.08508908418821019 0.002240609813573009 -7.822969833392124e-11 1.835640676980312e-12 -0.006092355386330461 0.001035792600716292
2480000.0 -0.006078258281577597 0.0009609894177890441 -0.08508887895297423 0.002297579153863389 -8.081567310659427e-11 1.946553206343103e-12 -0.006086301314650711 0.0009494774368957827
2520000.0 -0.006072213846148533 0.0008748546653580478 -0.08508862655561986 0.002354548021360962 -8.34436596844732e-11 2.061720293161231e-12 -0.006080262784511015 0.0008631625157654453
2560000.0 -0.00606618496419331 0.000788720181001266 -0.08508832700285046 0.002411516363359135 -8.611365444638205e-11 2.181220351260444e-12 -0.006074239780441415 0.0007768479035282092
2600000.0 -0.006060171621955712 0.000702586037127516 -0.08508798027177733 0.002468484125601482 -8.882565362573468e-11 2.305131785699009e-12 -0.006068232287858244 0.0006905336668948224
2640000.0 -0.006045702839439948 0.0006207704887213596 -0.08508493490922475 0.002523997669921113 -9.15768918525091e-11 2.431876536470491e-12 -0.006053768867290143 0.0006085383072573379
2680000.0 -0.006031252038195322 0.0005389558152430126 -0.08508184239110075 0.002579505839109676 -9.43699559784555e-11 2.563082171099746e-12 -0.00603932339182045 0.0005265438578119782
2720000.0 -0.006016819209588076 0.0004571420373048685 -0.08507870274401676 0.002635008584024607 -9.720483794411267e-11 2.698824267968491e-12 -0.006024895852196011 0.0004445503336332771
2760000.0 -0.006002404344875201 0.0003753291754832232 -0.08507551597976615 0.002690505854783971 -1.000815295505778e-10 2.83917838281864e-12 -0.006010486239630519 0.0003625577498278668
2800000.0 -0.005988007435419607 0.0002935172503097196 -0.08507228208995944 0.002745997600378995 -1.03000022457191e-10 2.984220048274249e-12 -0.00599609454595007 0.0002805661215345977
2840000.0 -0.005970581825164745 0.000210230357730857 -0.08507271887948545 0.002808250899874803 -1.059647488359725e-10 3.142720541284044e-12 -0.005978675531661759 0.0001970995725053333
2880000.0 -0.005953175372207964 0.0001269376004601825 -0.08507309778649902 0.002870505604459689 -1.089714998783234e-10 3.306562066178515e-12 -0.00596127566861071 0.0001136271518872364
2920000.0 -0.005935788083052062 4.363904303969805e-05 -0.08507341882382793 0.002932761648828685 -1.120202712155428e-10 3.475831176278572e-12 -0.005943894963729934 3.014891909116684e-05
2960000.0 -0.005918419964302757 -3.966524996341801e-05 -0.08507368199599143 0.002995018967289716 -1.151110583208441e-10 3.650614419633788e-12 -0.005926533424608027 -5.333506634376694e-05
3000000.0 -0.005901071023967641 -0.0001229752139789653 -0.08507388730440259 0.003057277494121684 -1.182438565166634e-10 3.830998339189841e-12 -0.005909191060508134 -0.0001368247447736211
3040000.0 -0.005898668425499687 -0.0001694452870726724 -0.0850743933644871 0.003099758082461277 -1.214192468887723e-10 3.988889047085838e-12 -0.005906791745569073 -0.0001834763921973682
3080000.0 -0.005896264962242159 -0.0002159144275522781 -0.08507486650789634 0.003142237632374903 -1.246367045380146e-10 4.151058414773179e-12 -0.005904391481620141 -0.0002301271396436062
3120000.0 -0.005893860614238688 -0.0002623825741425238 -0.08507530672981424 0.003184716101344362 -1.278962277056772e-10 4.317563550842342e-12 -0.005901990249230661 -0.000276776930394335
3160000.0 -0.005891455362142862 -0.0003088496651484905 -0.08507571403735963 0.003227193447876038 -1.31197814576857e-10 4.488461556951688e-12 -0.005899588031753501 -0.0003234257071913045
3200000.0 -0.005889049187650319 -0.0003553156384773474 -0.08507608842971853 0.003269669630080267 -1.345414632467071e-10 4.663809525203541e-12 -0.005897184812074573 -0.0003700734122591346
3240000.0 -0.005884048800568586 -0.0004262540570116197 -0.08506992666580328 0.0033217981521764 -1.379166377138771e-10 4.859069129197272e-12 -0.005892188438567537 -0.000441191591800361
3280000.0 -0.005879060832517546 -0.0004971887681115246 -0.08506371919818653 0.003373918940291349 -1.413333276120367e-10 5.059647231019831e-12 -0.005887204449513739 -0.0005123060909406549
3320000.0 -0.005874085288309905 -0.0005681196386412194 -0.08505746602674166 0.003426031946099261 -1.447915197818216e-10 5.265614106274535e-12 -0.005882232852744029 -0.0005834167804804433
3360000.0 -0.005869122175047203 -0.000639046535224572 -0.08505116718525449 0.003478137124169662 -1.482912010103642e-10 5.477039998942487e-12 -0.005877273656365257 -0.0006545235308528848
3400000.0 -0.005864171501883342 -0.0007099693242847818 -0.08504482267694748 0.003530234426991604 -1.518323579300622e-10 5.69399511358673e-12 -0.00587232687294359 -0.0007256262121534612
3440000.0 -0.005864816222969416 -0.000787077414196491 -0.08504447385016746 0.003586083138879738 -1.554260848160649e-10 5.923573860999433e-12 -0.005872976718907631 -0.0008029150526170549
3480000.0 -0.005865474069516319 -0.0008641868025295094 -0.08504407664513072 0.003641932603724816 -1.590617724027215e-10 6.159167161552663e-12 -0.005873639684517928 -0.0008802052628091003
3520000.0 -0.005866145031163117 -0.000941297459646775 -0.08504363106782221 0.003697782762684429 -1.627394154759296e-10 6.40085200668645e-12 -0.005874315761605686 -0.000957496816388254
3560000.0 -0.005866829097717185 -0.001018409355856763 -0.08504313710714755 0.003753633555711523 -1.664590086679269e-10 6.648705379225346e-12 -0.005875004943497797 -0.001034789686812494
3600000.0 -0.00586752625879905 -0.001095522461415774 -0.08504259477333981 0.003809484924660086 -1.702205465303545e-10 6.902804258752439e-12 -0.00587570722239672 -0.001112083847362355
3640000.0 -0.005851636120641435 -0.001150218386373936 -0.08503735405135741 0.003862136731487316 -1.740141596147327e-10 7.156578466796769e-12 -0.005859821142567889 -0.001166960227948366
3680000.0 -0.005835755348876592 -0.001204917904218613 -0.08503206653643305 0.003914781403938229 -1.778492715457664e-10 7.416444264757701e-12 -0.005843944423225445 -0.00122184026667278
3720000.0 -0.005819883931184378 -0.00125962098640051 -0.08502673225511835 0.003967418890636281 -1.817258694711577e-10 7.682472893483498e-12 -0.005828077055437308 -0.001276723937566289
3760000.0 -0.005804021856765873 -0.001314327604408993 -0.08502135121398743 0.004020049138713052 -1.856439403771168e-10 7.954735565115956e-12 -0.005812219030946309 -0.001331611214574929
3800000.0 -0.00578816911397917 -0.00136903772978121 -0.08501592341771383 0.004072672095206259 -1.89603471124387e-10 8.233303465369676e-12 -0.005796370341781931 -0.001386502071550204
3840000.0 -0.005796261219843557 -0.00141821661593789 -0.08501113390739148 0.004118748254114482 -1.936062697769607e-10 8.503381750878347e-12 -0.005804465186367458 -0.001435862506421422
3880000.0 -0.005804358148200573 -0.001467392418372344 -0.08500630621783524 0.004164820120338641 -1.976505966024086e-10 8.779289061200542e-12 -0.005812564835174671 -0.001485219937341474
3920000.0 -0.005812459913333123 -0.00151656510602091 -0.0850014403499916 0.004210887646691306 -2.01736440452212e-10 9.06108706982854e-12 -0.005820669306614956 -0.001534574335173086
3960000.0 -0.005820566529445848 -0.001565734648072537 -0.08499653633762691 0.004256950789114798 -2.058637901546621e-10 9.34883743342336e-12 -0.005828778618143349 -0.001583925670895761
4000000.0 -0.005828678011791322 -0.001614901013964894 -0.08499159418833153 0.004303009501323465 -2.100326343853261e-10 9.642601780652794e-12 -0.005836892788095517 -0.001633273915614614
4040000.0 -0.00581371999194813 -0.001669178651280387 -0.0849926971597773 0.004356886533560037 -2.142580596881901e-10 9.962133922264194e-12 -0.005821939719723335 -0.001687734186208493
4080000.0 -0.005798769944524218 -0.001723460970065075 -0.08499375179690903 0.004410762960258474 -2.185255347378379e-10 1.028859755927921e-11 -0.005806994654990016 -0.00174219925316003
4120000.0 -0.005783827842262612 -0.001777747925315962 -0.08499475809128663 0.004464638722298984 -2.228350554218575e-10 1.062206643918928e-11 -0.005792057569699582 -0.001796669072756391
4160000.0 -0.005768893657772223 -0.001832039471855391 -0.08499571606029947 0.004518513763286896 -2.271866175648065e-10 1.096261430242152e-11 -0.005777128439401369 -0.001851143600990654
4200000.0 -0.005753967364395041 -0.001886335564332503 -0.08499662570059963 0.00457238802491223 -2.315802168177224e-10 1.13103148719122e-11 -0.00576220724093246 -0.00190562279355042
4240000.0 -0.005759284135554043 -0.001936685388178827 -0.08498896509681746 0.004619891104577278 -2.359922901871703e-10 1.164770551858559e-11 -0.005767526944160162 -0.001956154382128029
4280000.0 -0.005764605486933915 -0.001987031397137408 -0.08498126289852394 0.004667384902408309 -2.404455154450577e-10 1.199171052552659e-11 -0.005772851249167488 -0.002006682238096657
