!Created with skrf (http://scikit-rf.org).
# Hz S RI R 50.0 
!freq ReS11 ImS11 ReS21 ImS21 ReS12 ImS12 ReS22 ImS22
0.0 -0.2005209458103192 2.455673344486073e-17 0.1629527581411967 0.0 -1.377587225780768e-12 1.6870577865987e-28 -0.2005256064155284 2.455730420438588e-17
40000.0 -0.02526862894551951 0.09626528022520779 0.2813918846486249 0.05044691740351065 1.024961380737764e-19 3.259663673482823e-20 -0.02527658069258288 0.09626335338692874
80000.0 -0.01409058401076713 0.05079961019495698 0.2899346845451587 0.01627583080585857 4.043428408664927e-19 6.390868394211758e-20 -0.01409878182327051 0.05079814676975562
120000.0 -0.01235254744271541 0.03716422824701136 0.2910599669032911 0.0008459086514940529 9.69140638524854e-19 1.419621539233163e-19 -0.01236078074657698 0.03716269993472231
160000.0 -0.01164616272671659 0.02933391770648318 0.2911047743998897 -0.01106895520712313 1.755969994673994e-18 1.86183868606502e-19 -0.01165441023585567 0.0293322251979844
200000.0 -0.0109194791549535 0.02152378632954435 0.2907001931814332 -0.02293602344957643 2.795508753803363e-18 1.736487181296852e-19 -0.01092774935703033 0.02152192743568303
240000.0 -0.01066518520094051 0.01891436251237921 0.2899657359721738 -0.03168708090322013 3.961353274016136e-18 1.727855088843422e-19 -0.01067345823141208 0.01891225034113717
280000.0 -0.01040911517177479 0.01630577665256071 0.288968380778241 -0.04041241794430025 5.303858350639928e-18 1.224261024598776e-19 -0.01041739435339195 0.0163034108286607
320000.0 -0.01019148002983216 0.01436045072302563 0.2877509876561092 -0.04873112690872691 6.858350092654156e-18 1.796149758512905e-19 -0.0101997646969415 0.01435782042316572
360000.0 -0.01001360064407575 0.01307771100235742 0.2863431574333158 -0.05664126766619669 8.652211460891143e-18 4.680757996502782e-19 -0.01002188902732981 0.01307480555194059
400000.0 -0.009835760948126325 0.01179511747022108 0.2847134598334345 -0.06451148726906289 1.064831184636667e-17 8.733516080204878e-19 -0.00984405488158402 0.01179193671388594
440000.0 -0.009696102133182725 0.01103114455895859 0.2829252950576582 -0.07198726589075011 1.299415523611307e-17 7.978875807423357e-19 -0.009704398534498556 0.01102767863115444
480000.0 -0.00955646319448611 0.01026732039178196 0.2809357529646083 -0.0794151162145836 1.560489955929894e-17 6.493224619361374e-19 -0.009564763201045823 0.01026356921738395
520000.0 -0.00939304094199622 0.009637819966908703 0.2787880763738288 -0.08672221696645302 1.827623596074027e-17 5.280552801353662e-19 -0.009401345190542145 0.009633781013642451
560000.0 -0.009205855217632506 0.009142519997609747 0.2764885137958258 -0.09390675194236721 2.090882982033653e-17 4.63330225775751e-19 -0.009214164105423084 0.009138190687539311
600000.0 -0.009018719362305803 0.008647208040454931 0.2739980380430995 -0.1010325374622732 2.367634646234891e-17 3.519540223530566e-19 -0.009027033698296938 0.00864258825022572
640000.0 -0.008862371317429396 0.0082482977625815 0.2713277568338286 -0.1080121018997398 2.734560904274846e-17 2.502454627578339e-19 -0.0088706899370099 0.008243385427404125
680000.0 -0.008706107540067176 0.007849383417995298 0.2684736321612476 -0.1149238474644433 3.133628430751218e-17 1.143388797009556e-19 -0.008714431075225626 0.00784417846860129
720000.0 -0.008551409075516216 0.007499963530352275 0.2654529723698769 -0.1217232998565752 3.543883243222151e-17 7.7965373282139e-20 -0.008559737276046309 0.007494464735740996
760000.0 -0.008398230388578677 0.007200045977835269 0.2622704640700614 -0.1284071660209187 3.958826516440113e-17 1.807689422576044e-19 -0.008406562866500768 0.007194252120477909
800000.0 -0.00824507575144451 0.00690013526072713 0.2589131389190344 -0.1350114279542327 4.398475467275464e-17 3.009677366601224e-19 -0.008253412944435157 0.006894046298835631
840000.0 -0.008139220993512386 0.006641743725563773 0.2553532324863141 -0.1415379374127163 4.878411849650784e-17 -1.174632983285378e-19 -0.008147563109083487 0.00663536069301203
880000.0 -0.008033430520323681 0.006383370046723558 0.2516218738036343 -0.1479749636243459 5.388101902391074e-17 -6.318743501706256e-19 -0.008041778023508807 0.006376692960847589
920000.0 -0.007925616533822177 0.00613096093169043 0.2477111355544029 -0.1543405851933035 5.901853633379934e-17 -5.484354075417907e-19 -0.007933970550423221 0.006123990417486176
960000.0 -0.007815818570218624 0.005884465016030842 0.2436213576539617 -0.160629838769942 6.412130385101271e-17 3.148453378365311e-19 -0.007824180288115712 0.0058772016941977
1000000.0 -0.007706137805026603 0.00563791862790584 0.2393640579123435 -0.1668160526745873 6.942963500764525e-17 1.324717530433105e-18 -0.007714507759756462 0.005630362516742775
1040000.0 -0.007614919436926048 0.005431808535483046 0.2349907694488065 -0.1728056152805206 7.463881585938455e-17 1.092065388989692e-18 -0.007623295048887258 0.005423957128921183
1080000.0 -0.007523742388704012 0.005225679758523596 0.2304590115199007 -0.1786866375154989 8.001233261655017e-17 8.003938776405578e-19 -0.007532123975538484 0.005217533104486765
1120000.0 -0.007432606643247741 0.005019532356215489 0.2257710279127866 -0.1844552866932607 8.554972196009555e-17 4.44650778799197e-19 -0.007440994513173372 0.005011090504753116
1160000.0 -0.00734151218503254 0.004813366389303491 0.2209291066397252 -0.1901077706444254 9.125088734510076e-17 1.965878317308916e-20 -0.007349906639537052 0.004804629392159557
1200000.0 -0.007250459000288755 0.004607181920059979 0.2159355764799448 -0.1956403335282526 9.711611041402415e-17 -4.798737127821508e-19 -0.007258860331835205 0.004598149830290557
1240000.0 -0.007178089037661373 0.004455602696433992 0.210793508578754 -0.201036390387907 1.041523110401043e-16 3.499682708448552e-19 -0.007186496982285574 0.004446275526911602
1280000.0 -0.007105755700907325 0.004304008904733958 0.2055052367204037 -0.2063051403218766 1.114789480271106e-16 1.286228231715885e-18 -0.007114170514607277 0.004294386725932762
1320000.0 -0.007033458948137672 0.004152400631590949 0.2000731980993794 -0.2114429350555383 1.191016005192818e-16 2.333659230632822e-18 -0.007041880878369543 0.004142483514149773
1360000.0 -0.006961198739820817 0.004000777965327309 0.1944998614667541 -0.2164461440127628 1.270259817021988e-16 3.497072590051607e-18 -0.006969628025364607 0.003990565979660178
1400000.0 -0.006888975038301769 0.003849140995904609 0.1887877252137389 -0.2213111471914334 1.352579318614993e-16 4.781322552744211e-18 -0.006897411910662844 0.003838634211804995
1440000.0 -0.006841000572332613 0.003717832386765557 0.1829423093450058 -0.2259788611299492 1.432740645295944e-16 4.644764252967195e-18 -0.006849442673223183 0.003707031344531274
1480000.0 -0.006793041844706748 0.003586533743457161 0.1769660165022844 -0.2305013941971589 1.51571822507327e-16 4.457364928047194e-18 -0.006801489313551512 0.003575438594347735
1520000.0 -0.006745098825341689 0.003455245148273253 0.1708614342943865 -0.2348752314545642 1.601593846516893e-16 4.215990802454271e-18 -0.006753551793790336 0.003443856041725239
1560000.0 -0.006697171485995245 0.003323966685240241 0.1646311799680936 -0.2390968412811556 1.690454104101177e-16 3.917527528984613e-18 -0.006705630077834646 0.00331228376851982
1600000.0 -0.006649259800354357 0.003192698440061481 0.1582779030879416 -0.2431626673293142 1.782390456265883e-16 3.559001857581403e-18 -0.006657724132711262 0.003180721857924754
1640000.0 -0.006610225150288417 0.003064643192109704 0.1517910504573585 -0.2470916871033448 1.877934053185156e-16 3.095563769483782e-18 -0.006618696663200585 0.003052373232798684
1680000.0 -0.006571219612139467 0.002936576673153964 0.1451854336651174 -0.2508569712504967 1.976706650888237e-16 2.559441748144422e-18 -0.006579698454805328 0.002924013451319369
1720000.0 -0.006532243169081298 0.002808498940956318 0.1384638509162055 -0.2544547900406996 2.078800063714156e-16 1.947125755156507e-18 -0.00654072948351181 0.002795642567855455
1760000.0 -0.006493295805130916 0.002680410054043528 0.1316291563836359 -0.2578813559532001 2.184310102119788e-16 1.255134406569561e-18 -0.00650178972672788 0.002667260637247378
1800000.0 -0.006454377505433095 0.002552310071670096 0.1246842676698192 -0.2611328134692505 2.293336582620989e-16 4.800297649453775e-19 -0.006462879163040337 0.002538867714786961
1840000.0 -0.006428908225918351 0.002432178273825152 0.1176332516690584 -0.2642061386594972 2.388070984626473e-16 2.653305596975437e-18 -0.006437417733828776 0.002418443010290416
1880000.0 -0.006403465724190372 0.002312040199310621 0.1104780475613393 -0.267096445695725 2.48465897760148e-16 5.010901559745681e-18 -0.006411983196235927 0.002298012123194251
1920000.0 -0.006378049975562239 0.002191895918767441 0.1032218264727961 -0.2697996228730704 2.583123461666654e-16 7.55778596071977e-18 -0.00638657552071431 0.002177575119480699
1960000.0 -0.006352660955784239 0.00207174550383739 0.0958678709846715 -0.2723114584850291 2.683490222528383e-16 1.029882953750693e-17 -0.006361194677173221 0.002057132065911601
2000000.0 -0.006327298642326729 0.00195158902712313 0.08841959077251234 -0.2746276326251209 2.785788171344333e-16 1.323881820545944e-17 -0.006335840637650136 0.0019366830300026
2040000.0 -0.006300797553956295 0.001863264676767962 0.08093607243678316 -0.2767350039537058 2.904764508539166e-16 1.394670149390892e-17 -0.006309345195553262 0.001848064155888063
2080000.0 -0.006274302985764924 0.001774936732912284 0.07336585469575065 -0.2786407644577729 3.027226513390862e-16 1.467101034255642e-17 -0.00628285624870184 0.001759441739598669
2120000.0 -0.006247814943672436 0.001686605232625941 0.06571271627466714 -0.2803402709929824 3.153285899927735e-16 1.54116420681735e-17 -0.006256373799155335 0.001670815812564124
2160000.0 -0.006221333433809373 0.0015982702131131 0.0579806417145026 -0.2818287503745985 3.283059620373449e-16 1.616847628550683e-17 -0.006229897848148314 0.001582186406205987
2200000.0 -0.006194858462588826 0.001509931711696085 0.05017384707665186 -0.2831012994924341 3.416670090450806e-16 1.694139053058569e-17 -0.006203428398171008 0.001493553551919714
2240000.0 -0.006173947182763428 0.001434599643757636 0.04227432423809704 -0.2841252414283331 3.501723921177356e-16 1.503914815220367e-17 -0.006182522788407252 0.00141792951849204
2280000.0 -0.006153045093440945 0.001359266204828835 0.03431090533634678 -0.2849218698408458 3.587818928674331e-16 1.286718433266094e-17 -0.006161626363815008 0.00134230420065964
2320000.0 -0.006132152183237038 0.001283931571877821 0.02628873448803316 -0.2854859695560599 3.675115812990027e-16 1.041439427260732e-17 -0.006140739108748239 0.001266677769106995
2360000.0 -0.006111268444160435 0.001208595923472676 0.01821330512362187 -0.2858122190355359 3.763789088051267e-16 7.669930594301685e-18 -0.006119861013736182 0.001191050396028935
2400000.0 -0.006090393872128064 0.001133259439673447 0.01009049433893393 -0.2858952011211381 3.854027399915589e-16 4.623374110128573e-18 -0.006098992071944421 0.001115422255043399
2440000.0 -0.006084318285223266 0.001047124366367528 0.001913986574473248 -0.2857384158263954 3.987942187865006e-16 6.929879743036259e-18 -0.006092923107084203 0.001028995377712071
2480000.0 -0.006078258281577597 0.0009609894177890441 -0.006297332718791124 -0.2853265751873368 4.125317087368462e-16 9.374162442182768e-18 -0.006086869732215728 0.0009425686613513147
2520000.0 -0.006072213846148533 0.0008748546653580478 -0.01453618952203807 -0.2846540676530879 4.266280848736044e-16 1.19582281713391e-17 -0.006080831930203701 0.0008561421708072908
2560000.0 -0.00606618496419331 0.000788720181001266 -0.02279477835673268 -0.2837152822980389 4.410969208596507e-16 1.468386916825538e-17 -0.006074809685407411 0.0007697159714060842
2600000.0 -0.006060171621955712 0.000702586037127516 -0.0310647247291225 -0.2825046427484056 4.559525114360232e-16 1.755262252810331e-17 -0.006068802983105526 0.000683290128936676
2640000.0 -0.006045702839439948 0.0006207704887213596 -0.03933126634351831 -0.281008394627686 4.710703481536956e-16 1.961916048545373e-17 -0.006054340233218602 0.0006011833551920531
2680000.0 -0.006031252038195322 0.0005389558152430126 -0.04759009497135191 -0.279229797301526 4.865668239252281e-16 2.175954212774116e-17 -0.00603989545527428 0.0005190774781567583
2720000.0 -0.006016819209588076 0.0004571420373048685 -0.05583093164248291 -0.2771636874910985 5.024552171469706e-16 2.397167861511029e-17 -0.006025468640300624 0.0004369725118940458
2760000.0 -0.006002404344875201 0.0003753291754832232 -0.06404279552893348 -0.2748051466105922 5.187495185644608e-16 2.625301587644368e-17 -0.006011059779616024 0.0003548684704625095
2800000.0 -0.005988007435419607 0.0002935172503097196 -0.07221397778851424 -0.2721495681312894 5.354644660825375e-16 2.860036622361115e-17 -0.005996668865451582 0.0002727653679176936
2840000.0 -0.005970581825164745 0.000210230357730857 -0.08035674263869562 -0.26919892254712 5.531837121673209e-16 3.059397447850812e-17 -0.005979251341300618 0.0001891870330480992
2880000.0 -0.005953175372207964 0.0001269376004601825 -0.08843339099683906 -0.2659417105938224 5.714472372353614e-16 3.26740458479147e-17 -0.005961853016271168 0.0001056027981321892
2920000.0 -0.005935788083052062 4.363904303969805e-05 -0.09642984968505808 -0.2623747256861682 5.902797299685408e-16 3.484174851555282e-17 -0.005944473897035452 2.201272143423896e-05
2960000.0 -0.005918419964302757 -3.966524996341801e-05 -0.1043312746062922 -0.2584954231825041 6.097070050417828e-16 3.70976559847248e-17 -0.00592711399218071 -6.158313867148757e-05
3000000.0 -0.005901071023967641 -0.0001229752139789653 -0.1121220639635888 -0.254302024068957 6.297560035939964e-16 3.944188913168691e-17 -0.005909773311696287 -0.000145184723701565
3040000.0 -0.005898668425499687 -0.0001694452870726724 -0.1197273302658601 -0.2498203810387744 6.472099599610007e-16 3.942645659778024e-17 -0.005907373763635704 -0.0001919484268635961
3080000.0 -0.005896264962242159 -0.0002159144275522781 -0.1271907632761749 -0.2450273407120755 6.65134259390151e-16 3.930402500271497e-17 -0.005904973265329906 -0.0002387112642578258
3120000.0 -0.005893860614238688 -0.0002623825741425238 -0.1344949103781602 -0.2399239710197347 6.835522554927932e-16 3.906446260608155e-17 -0.005902571799545454 -0.0002854731802948715
3160000.0 -0.005891455362142862 -0.0003088496651484905 -0.1416217433181147 -0.2345125339154925 7.024882011941134e-16 3.869658185370849e-17 -0.005900169349783657 -0.0003322341188159205
3200000.0 -0.005889049187650319 -0.0003553156384773474 -0.1485527414447101 -0.2287965967095649 7.219671948333073e-16 3.81879057243032e-17 -0.005897765900442885 -0.0003789940230821087
3240000.0 -0.005884048800568586 -0.0004262540570116197 -0.1552837303585641 -0.2227470628754017 7.455491320896995e-16 3.970454709927334e-17 -0.005892770278644766 -0.0004502237203326696
3280000.0 -0.005879060832517546 -0.0004971887681115246 -0.1617783824986881 -0.2164038944405736 7.699974937418793e-16 4.111561363276044e-17 -0.005887787072653584 -0.0005214497601335935
3320000.0 -0.005874085288309905 -0.0005681196386412194 -0.1680173326704184 -0.2097753391823425 7.953491052024816e-16 4.240050232991235e-17 -0.005882816291300164 -0.0005926720140673759
3360000.0 -0.005869122175047203 -0.000639046535224572 -0.1739812456871416 -0.2028713350615476 8.216413014469246e-16 4.353654495180863e-17 -0.005877857945387865 -0.0006638903532283202
3400000.0 -0.005864171501883342 -0.0007099693242847818 -0.1796509853919906 -0.1957035701474749 8.489117520596846e-16 4.449877378205268e-17 -0.005872912048361046 -0.0007351046482496503
3440000.0 -0.005864816222969416 -0.000787077414196491 -0.1850290136312621 -0.1882916216020399 8.741676700567431e-16 4.009907451069263e-17 -0.005873563279029104 -0.0008125058005891936
3480000.0 -0.005865474069516319 -0.0008641868025295094 -0.1900760720395281 -0.1806431712293628 9.002068660409283e-16 3.529011492930185e-17 -0.005874227679740551 -0.0008899083642640381
3520000.0 -0.005866145031163117 -0.000941297459646775 -0.1947746955663612 -0.1727753268162609 9.270561976669914e-16 3.004025416343106e-17 -0.005874905245240703 -0.0009673123129822542
3560000.0 -0.005866829097717185 -0.001018409355856763 -0.1991084302562524 -0.1647069854881763 9.547419577920928e-16 2.431524649743863e-17 -0.005875595969870084 -0.001044717620078558
3600000.0 -0.00586752625879905 -0.001095522461415774 -0.2030620548814541 -0.156458774522788 9.83289582952219e-16 1.807815396036684e-17 -0.005876299848613487 -0.001122124258506883
3640000.0 -0.005851636120641435 -0.001150218386373936 -0.2066049846882468 -0.1480518790684964 9.984472973418921e-16 2.290191983296842e-17 -0.005860415006698205 -0.001177112572155578
3680000.0 -0.005835755348876592 -0.001204917904218613 -0.2097421615343335 -0.1395123435210917 1.013759342037108e-15 2.771309030593714e-17 -0.005844539577655961 -0.001232104570084771
3720000.0 -0.005819883931184378 -0.00125962098640051 -0.2124634224090381 -0.130865288743198 1.02922964450771e-15 3.247597569327709e-17 -0.005828673554970743 -0.0012871002253698
3760000.0 -0.005804021856765873 -0.001314327604408993 -0.2147606489640169 -0.1221370069250559 1.044859941274551e-15 3.715187543437849e-17 -0.005812816932607046 -0.001342099510786905
3800000.0 -0.00578816911397917 -0.00136903772978121 -0.2166279282117846 -0.1133547502504986 1.06064943952423e-15 4.169903816467465e-17 -0.005796969704630839 -0.00139710239882092
3840000.0 -0.005796261219843557 -0.00141821661593789 -0.2180545602193066 -0.1045637590571274 1.097559465118021e-15 4.32737500865665e-17 -0.005805065265656384 -0.001446575022909504
3880000.0 -0.005804358148200573 -0.001467392418372344 -0.2190479100884604 -0.09577528253771796 1.135595049227023e-15 4.448830835995495e-17 -0.00581316567741097 -0.001496044664701925
3920000.0 -0.005812459913333123 -0.00151656510602091 -0.2196093450892922 -0.08701785242762579 1.174762948924121e-15 4.529157101386006e-17 -0.005821270958673908 -0.00154551129316078
3960000.0 -0.005820566529445848 -0.001565734648072537 -0.2197427629099019 -0.07831990942386495 1.215065730961972e-15 4.562995175777518e-17 -0.005829381128991007 -0.001594974877203134
4000000.0 -0.005828678011791322 -0.001614901013964894 -0.2194545874636407 -0.06970951535603875 1.256501347568839e-15 4.544778565869477e-17 -0.005837496207596882 -0.001644435385743141
4040000.0 -0.00581371999194813 -0.001669178651280387 -0.2187757596102707 -0.0611994433813587 1.292360574430862e-15 3.864400480431204e-17 -0.005822545145479086 -0.001699008699190722
4080000.0 -0.005798769944524218 -0.001723460970065075 -0.2176938824569657 -0.05282969927579482 1.329132900686893e-15 3.082807343650477e-17 -0.005807602158647507 -0.001753586835850195
4120000.0 -0.005783827842262612 -0.001777747925315962 -0.2162224679387135 -0.04462567188809846 1.366802853473315e-15 2.192640903750906e-17 -0.005792667223895487 -0.001808169749537044
4160000.0 -0.005768893657772223 -0.001832039471855391 -0.2143771477747161 -0.03661130225741262 1.405348765625996e-15 1.186432404877105e-17 -0.005777740317597702 -0.001862757393729531
4200000.0 -0.005753967364395041 -0.001886335564332503 -0.212175484322509 -0.02880886351630545 1.444742357459753e-15 5.665973108769698e-19 -0.005762821416341213 -0.001917349721598718
4240000.0 -0.005759284135554043 -0.001936685388178827 -0.2096134760400084 -0.02125108815865087 1.475600459983846e-15 -1.308921406454298e-17 -0.005768142602137205 -0.001967993283482052
4280000.0 -0.005764605486933915 -0.001987031397137408 -0.2067367654475903 -0.01394517895076709 1.506875211999825e-15 -2.809044567050328e-17 -0.005773468446380271 -0.00201863310404766
4320000.0 -0.005769931421430674 -0.002037373543769719 -0.2035673699758132 -0.006907255128116097 1.538510371079136e-15 -4.450447022650182e-17 -0.005778798955440533 -0.00206926913410716
4360000.0 -0.005775261942246757 -0.002087711780699302 -0.2001282588912394 -0.0001512139404046461 1.570441454672457e-15 -6.239597934375387e-17 -0.005784134135368046 -0.002119901324501228
